date 08/28/25 19:10:31
base hex  timestamps absolute
Begin Triggerblock 08/28/25 19:10:31
   0.000000 Start of measurement
   0.201165 1  0               Rx   d 8 00 00 00 00 00 00 00 32
   0.401499 1  0               Rx   d 8 00 00 00 00 00 00 00 66
   0.602210 1  0               Rx   d 8 00 00 00 00 00 00 00 98
   0.802858 1  0               Rx   d 8 00 00 00 00 00 00 00 CC
   1.003648 1  0               Rx   d 8 00 00 00 00 00 00 01 00
   1.204951 1  0               Rx   d 8 00 00 00 00 00 00 01 32
   1.405930 1  0               Rx   d 8 00 00 00 00 00 00 01 66
   1.607026 1  0               Rx   d 8 00 00 00 00 00 00 01 98
   1.807489 1  0               Rx   d 8 00 00 00 00 00 00 01 CC
   2.007739 1  0               Rx   d 8 00 00 00 00 00 00 02 00
   2.208098 1  0               Rx   d 8 00 00 00 00 00 00 02 32
   2.408547 1  0               Rx   d 8 00 00 00 00 00 00 02 66
   2.609562 1  0               Rx   d 8 00 00 00 00 00 00 02 98
   2.809847 1  0               Rx   d 8 00 00 00 00 00 00 02 CC
   3.010645 1  0               Rx   d 8 00 00 00 00 00 00 03 00
   3.211386 1  0               Rx   d 8 00 00 00 00 00 00 03 32
   3.412526 1  0               Rx   d 8 00 00 00 00 00 00 03 66
   3.613245 1  0               Rx   d 8 00 00 00 00 00 00 03 98
   3.813713 1  0               Rx   d 8 00 00 00 00 00 00 03 CC
   4.014112 1  0               Rx   d 8 00 00 00 00 00 00 04 00
   4.214398 1  0               Rx   d 8 00 00 00 00 00 00 00 00
   4.414982 1  0               Rx   d 8 00 00 00 00 00 00 00 00
   4.615295 1  0               Rx   d 8 00 00 00 00 00 00 00 00
   4.815465 1  0               Rx   d 8 00 00 00 00 00 00 00 00
   5.016380 1  0               Rx   d 8 00 00 00 00 00 00 00 00
   5.216542 1  0               Rx   d 8 00 00 00 00 00 00 00 00
   5.417300 1  0               Rx   d 8 00 00 00 00 00 00 00 00
   5.617988 1  0               Rx   d 8 00 00 00 00 00 00 00 00
   5.818408 1  0               Rx   d 8 00 00 00 00 00 00 00 00
   6.019516 1  0               Rx   d 8 00 00 00 00 00 00 00 00
   6.220729 1  0               Rx   d 8 00 00 00 00 00 00 00 00
   6.421086 1  0               Rx   d 8 00 00 00 00 00 00 00 00
   6.621658 1  0               Rx   d 8 00 00 00 00 00 00 00 00
   6.821893 1  0               Rx   d 8 00 00 00 00 00 00 00 00
   7.023523 1  0               Rx   d 8 00 00 00 00 00 00 00 00
   7.224499 1  0               Rx   d 8 00 00 00 00 00 00 00 00
   7.424949 1  0               Rx   d 8 00 00 00 00 00 00 00 00
   7.625353 1  0               Rx   d 8 00 00 00 00 00 00 00 00
   7.825592 1  0               Rx   d 8 00 00 00 00 00 00 00 00
   8.026488 1  0               Rx   d 8 00 00 00 00 00 00 00 00
   8.227611 1  0               Rx   d 8 00 00 00 00 00 00 00 00
   8.427815 1  0               Rx   d 8 00 00 00 00 00 00 00 00
   8.628525 1  0               Rx   d 8 00 00 00 00 00 00 00 00
   8.829077 1  0               Rx   d 8 00 00 00 00 00 00 00 00
   9.029962 1  0               Rx   d 8 00 00 00 00 00 00 08 FE
   9.230475 1  0               Rx   d 8 00 00 00 00 00 00 09 32
   9.431706 1  0               Rx   d 8 00 00 00 00 00 00 09 66
   9.632166 1  0               Rx   d 8 00 00 00 00 00 00 09 98
   9.832447 1  0               Rx   d 8 00 00 00 00 00 00 09 CC
  10.033648 1  0               Rx   d 8 00 00 00 00 00 00 09 FE
  10.234917 1  0               Rx   d 8 00 00 00 00 00 00 0A 32
  10.435382 1  0               Rx   d 8 00 00 00 00 00 00 0A 66
  10.635758 1  0               Rx   d 8 00 00 00 00 00 00 0A 98
  10.836600 1  0               Rx   d 8 00 00 00 00 00 00 0A CC
  11.037378 1  0               Rx   d 8 00 00 00 00 00 00 0A FE
  11.237882 1  0               Rx   d 8 00 00 00 00 00 00 0B 32
  11.439001 1  0               Rx   d 8 00 00 00 00 00 00 0B 66
  11.639635 1  0               Rx   d 8 00 00 00 00 00 00 0B 98
  11.840391 1  0               Rx   d 8 00 00 00 00 00 00 0B CC
  12.040855 1  0               Rx   d 8 00 00 00 00 00 00 0B FE
  12.242131 1  0               Rx   d 8 00 00 00 00 00 00 0C 32
  12.443152 1  0               Rx   d 8 00 00 00 00 00 00 0C 66
  12.644236 1  0               Rx   d 8 00 00 00 00 00 00 0C 98
  12.844648 1  0               Rx   d 8 00 00 00 00 00 00 0C CC
  13.045033 1  0               Rx   d 8 00 00 00 00 00 00 0C FE
  13.245501 1  0               Rx   d 8 00 00 00 00 00 00 0D 32
  13.446980 1  0               Rx   d 8 00 00 00 00 00 00 0D 66
  13.647729 1  0               Rx   d 8 00 00 00 00 00 00 0D 98
  13.848694 1  0               Rx   d 8 00 00 00 00 00 00 0D CC
  14.050383 1  0               Rx   d 8 00 00 00 00 00 00 0D FE
  14.250963 1  0               Rx   d 8 00 00 00 00 00 00 0E 32
  14.451368 1  0               Rx   d 8 00 00 00 00 00 00 0E 66
  14.652121 1  0               Rx   d 8 00 00 00 00 00 00 0E 98
  14.853783 1  0               Rx   d 8 00 00 00 00 00 00 0E CC
  15.054832 1  0               Rx   d 8 00 00 00 00 00 00 0E FE
  15.255178 1  0               Rx   d 8 00 00 00 00 00 00 0F 32
  15.456191 1  0               Rx   d 8 00 00 00 00 00 00 0F 66
  15.656966 1  0               Rx   d 8 00 00 00 00 00 00 0F 98
  15.857494 1  0               Rx   d 8 00 00 00 00 00 00 0F CC
  16.058330 1  0               Rx   d 8 00 00 00 00 00 00 00 00
  16.259059 1  0               Rx   d 8 00 00 00 00 00 00 00 00
  16.459296 1  0               Rx   d 8 00 00 00 00 00 00 00 00
  16.659768 1  0               Rx   d 8 00 00 00 00 00 00 00 00
  16.860430 1  0               Rx   d 8 00 00 00 00 00 00 00 00
  17.060657 1  0               Rx   d 8 00 00 00 00 00 00 00 00
  17.260999 1  0               Rx   d 8 00 00 00 00 00 00 00 00
  17.461425 1  0               Rx   d 8 00 00 00 00 00 00 00 00
  17.662180 1  0               Rx   d 8 00 00 00 00 00 00 00 00
  17.862641 1  0               Rx   d 8 00 00 00 00 00 00 00 00
  18.063737 1  0               Rx   d 8 00 00 00 00 00 00 00 00
  18.264310 1  0               Rx   d 8 00 00 00 00 00 00 00 00
  18.465286 1  0               Rx   d 8 00 00 00 00 00 00 00 00
  18.666105 1  0               Rx   d 8 00 00 00 00 00 00 00 00
  18.867149 1  0               Rx   d 8 00 00 00 00 00 00 00 00
  19.067565 1  0               Rx   d 8 00 00 00 00 00 00 00 00
  19.268397 1  0               Rx   d 8 00 00 00 00 00 00 00 00
  19.468547 1  0               Rx   d 8 00 00 00 00 00 00 00 00
  19.669109 1  0               Rx   d 8 00 00 00 00 00 00 00 00
  19.869927 1  0               Rx   d 8 00 00 00 00 00 00 00 00
  20.070496 1  0               Rx   d 8 00 00 00 00 00 00 00 00
  20.271128 1  0               Rx   d 8 00 00 00 00 00 00 00 00
  20.471522 1  0               Rx   d 8 00 00 00 00 00 00 00 00
  20.672562 1  0               Rx   d 8 00 00 00 00 00 00 00 00
  20.873219 1  0               Rx   d 8 00 00 00 00 00 00 00 00
  21.073484 1  0               Rx   d 8 00 00 00 00 00 00 15 00
  21.274192 1  0               Rx   d 8 00 00 00 00 00 00 15 32
  21.474746 1  0               Rx   d 8 00 00 00 00 00 00 15 66
  21.674944 1  0               Rx   d 8 00 00 00 00 00 00 15 98
  21.875689 1  0               Rx   d 8 00 00 00 00 00 00 15 CC
  22.076798 1  0               Rx   d 8 00 00 00 00 00 00 16 00
  22.278040 1  0               Rx   d 8 00 00 00 00 00 00 16 32
  22.479430 1  0               Rx   d 8 00 00 00 00 00 00 16 66
  22.679827 1  0               Rx   d 8 00 00 00 00 00 00 16 98
  22.880811 1  0               Rx   d 8 00 00 00 00 00 00 16 CC
  23.081770 1  0               Rx   d 8 00 00 00 00 00 00 17 00
  23.281961 1  0               Rx   d 8 00 00 00 00 00 00 17 32
  23.482218 1  0               Rx   d 8 00 00 00 00 00 00 17 66
  23.682829 1  0               Rx   d 8 00 00 00 00 00 00 17 98
  23.883485 1  0               Rx   d 8 00 00 00 00 00 00 17 CC
  24.084356 1  0               Rx   d 8 00 00 00 00 00 00 18 00
  24.285369 1  0               Rx   d 8 00 00 00 00 00 00 16 00
  24.485694 1  0               Rx   d 8 00 00 00 00 00 00 14 00
  24.685859 1  0               Rx   d 8 00 00 00 00 00 00 12 00
  24.886357 1  0               Rx   d 8 00 00 00 00 00 00 10 00
  25.087476 1  0               Rx   d 8 00 00 00 00 00 00 0E 00
  25.287822 1  0               Rx   d 8 00 00 00 00 00 00 0C 00
  25.488562 1  0               Rx   d 8 00 00 00 00 00 00 0A 00
  25.688999 1  0               Rx   d 8 00 00 00 00 00 00 08 00
  25.889585 1  0               Rx   d 8 00 00 00 00 00 00 06 00
  26.091147 1  0               Rx   d 8 00 00 00 00 00 00 00 00
  26.292392 1  0               Rx   d 8 00 00 00 00 00 00 00 00
  26.492961 1  0               Rx   d 8 00 00 00 00 00 00 00 00
  26.693929 1  0               Rx   d 8 00 00 00 00 00 00 00 00
  26.895003 1  0               Rx   d 8 00 00 00 00 00 00 00 00
  27.095334 1  0               Rx   d 8 00 00 00 00 00 00 00 00
  27.295680 1  0               Rx   d 8 00 00 00 00 00 00 00 00
  27.497172 1  0               Rx   d 8 00 00 00 00 00 00 00 00
  27.698339 1  0               Rx   d 8 00 00 00 00 00 00 00 00
  27.898922 1  0               Rx   d 8 00 00 00 00 00 00 00 00
  28.099435 1  0               Rx   d 8 00 00 00 00 00 00 00 00
  28.299733 1  0               Rx   d 8 00 00 00 00 00 00 00 00
  28.499895 1  0               Rx   d 8 00 00 00 00 00 00 00 00
  28.700373 1  0               Rx   d 8 00 00 00 00 00 00 00 00
  28.901284 1  0               Rx   d 8 00 00 00 00 00 00 00 00
  29.102050 1  0               Rx   d 8 00 00 00 00 00 00 00 00
  29.303311 1  0               Rx   d 8 00 00 00 00 00 00 00 00
  29.503625 1  0               Rx   d 8 00 00 00 00 00 00 00 00
  29.703906 1  0               Rx   d 8 00 00 00 00 00 00 00 00
  29.904220 1  0               Rx   d 8 00 00 00 00 00 00 00 00
  30.104471 1  0               Rx   d 8 00 00 00 00 00 00 00 00
  30.305439 1  0               Rx   d 8 00 00 00 00 00 00 00 00
  30.505755 1  0               Rx   d 8 00 00 00 00 00 00 00 00
  30.706401 1  0               Rx   d 8 00 00 00 00 00 00 00 00
  30.907561 1  0               Rx   d 8 00 00 00 00 00 00 00 00
  31.107834 1  0               Rx   d 8 00 00 00 00 00 00 04 98
  31.308727 1  0               Rx   d 8 00 00 00 00 00 00 04 CC
  31.509748 1  0               Rx   d 8 00 00 00 00 00 00 04 FE
  31.710425 1  0               Rx   d 8 00 00 00 00 00 00 05 32
  31.910680 1  0               Rx   d 8 00 00 00 00 00 00 05 66
  32.111808 1  0               Rx   d 8 00 00 00 00 00 00 05 98
  32.312183 1  0               Rx   d 8 00 00 00 00 00 00 05 CC
  32.512689 1  0               Rx   d 8 00 00 00 00 00 00 05 FE
  32.713234 1  0               Rx   d 8 00 00 00 00 00 00 06 32
  32.914537 1  0               Rx   d 8 00 00 00 00 00 00 06 66
  33.114779 1  0               Rx   d 8 00 00 00 00 00 00 06 98
  33.315177 1  0               Rx   d 8 00 00 00 00 00 00 06 CC
  33.516145 1  0               Rx   d 8 00 00 00 00 00 00 06 FE
  33.717179 1  0               Rx   d 8 00 00 00 00 00 00 07 32
  33.918008 1  0               Rx   d 8 00 00 00 00 00 00 07 66
  34.118478 1  0               Rx   d 8 00 00 00 00 00 00 07 98
  34.319173 1  0               Rx   d 8 00 00 00 00 00 00 07 CC
  34.519476 1  0               Rx   d 8 00 00 00 00 00 00 07 FE
  34.720208 1  0               Rx   d 8 00 00 00 00 00 00 08 32
  34.920661 1  0               Rx   d 8 00 00 00 00 00 00 08 66
  35.121788 1  0               Rx   d 8 00 00 00 00 00 00 08 98
  35.322204 1  0               Rx   d 8 00 00 00 00 00 00 08 CC
  35.523025 1  0               Rx   d 8 00 00 00 00 00 00 08 FE
  35.723694 1  0               Rx   d 8 00 00 00 00 00 00 09 32
  35.924256 1  0               Rx   d 8 00 00 00 00 00 00 09 66
  36.125166 1  0               Rx   d 8 00 00 00 00 00 00 00 00
  36.325455 1  0               Rx   d 8 00 00 00 00 00 00 00 00
  36.526130 1  0               Rx   d 8 00 00 00 00 00 00 00 00
  36.726660 1  0               Rx   d 8 00 00 00 00 00 00 00 00
  36.927031 1  0               Rx   d 8 00 00 00 00 00 00 00 00
  37.128202 1  0               Rx   d 8 00 00 00 00 00 00 00 00
  37.328463 1  0               Rx   d 8 00 00 00 00 00 00 00 00
  37.529261 1  0               Rx   d 8 00 00 00 00 00 00 00 00
  37.730042 1  0               Rx   d 8 00 00 00 00 00 00 00 00
  37.930784 1  0               Rx   d 8 00 00 00 00 00 00 00 00
  38.132083 1  0               Rx   d 8 00 00 00 00 00 00 00 00
  38.332765 1  0               Rx   d 8 00 00 00 00 00 00 00 00
  38.534007 1  0               Rx   d 8 00 00 00 00 00 00 00 00
  38.735096 1  0               Rx   d 8 00 00 00 00 00 00 00 00
  38.935972 1  0               Rx   d 8 00 00 00 00 00 00 00 00
  39.136999 1  0               Rx   d 8 00 00 00 00 00 00 00 00
  39.337463 1  0               Rx   d 8 00 00 00 00 00 00 00 00
  39.537932 1  0               Rx   d 8 00 00 00 00 00 00 00 00
  39.738646 1  0               Rx   d 8 00 00 00 00 00 00 00 00
  39.939300 1  0               Rx   d 8 00 00 00 00 00 00 00 00
  40.139463 1  0               Rx   d 8 00 00 00 00 00 00 00 00
  40.339825 1  0               Rx   d 8 00 00 00 00 00 00 00 00
  40.540892 1  0               Rx   d 8 00 00 00 00 00 00 00 00
  40.742804 1  0               Rx   d 8 00 00 00 00 00 00 00 00
  40.943116 1  0               Rx   d 8 00 00 00 00 00 00 00 00
  41.143827 1  0               Rx   d 8 00 00 00 00 00 00 0E 98
  41.344606 1  0               Rx   d 8 00 00 00 00 00 00 0E CC
  41.545645 1  0               Rx   d 8 00 00 00 00 00 00 0E FE
  41.746766 1  0               Rx   d 8 00 00 00 00 00 00 0F 32
  41.947757 1  0               Rx   d 8 00 00 00 00 00 00 0F 66
  42.148907 1  0               Rx   d 8 00 00 00 00 00 00 0F 98
  42.350038 1  0               Rx   d 8 00 00 00 00 00 00 0F CC
  42.550890 1  0               Rx   d 8 00 00 00 00 00 00 0F FE
  42.752057 1  0               Rx   d 8 00 00 00 00 00 00 10 32
  42.953446 1  0               Rx   d 8 00 00 00 00 00 00 10 66
  43.153679 1  0               Rx   d 8 00 00 00 00 00 00 10 98
  43.354061 1  0               Rx   d 8 00 00 00 00 00 00 10 CC
  43.555097 1  0               Rx   d 8 00 00 00 00 00 00 10 FE
  43.755339 1  0               Rx   d 8 00 00 00 00 00 00 11 32
  43.955653 1  0               Rx   d 8 00 00 00 00 00 00 11 66
  44.156515 1  0               Rx   d 8 00 00 00 00 00 00 11 98
  44.357275 1  0               Rx   d 8 00 00 00 00 00 00 11 CC
  44.557752 1  0               Rx   d 8 00 00 00 00 00 00 11 FE
  44.758675 1  0               Rx   d 8 00 00 00 00 00 00 12 32
  44.959208 1  0               Rx   d 8 00 00 00 00 00 00 12 66
  45.159610 1  0               Rx   d 8 00 00 00 00 00 00 12 98
  45.359903 1  0               Rx   d 8 00 00 00 00 00 00 12 CC
  45.560465 1  0               Rx   d 8 00 00 00 00 00 00 13 00
  45.761617 1  0               Rx   d 8 00 00 00 00 00 00 13 32
  45.961932 1  0               Rx   d 8 00 00 00 00 00 00 13 66
  46.162996 1  0               Rx   d 8 00 00 00 00 00 00 00 00
  46.363493 1  0               Rx   d 8 00 00 00 00 00 00 00 00
  46.564408 1  0               Rx   d 8 00 00 00 00 00 00 00 00
  46.765361 1  0               Rx   d 8 00 00 00 00 00 00 00 00
  46.965804 1  0               Rx   d 8 00 00 00 00 00 00 00 00
  47.166504 1  0               Rx   d 8 00 00 00 00 00 00 00 00
  47.367378 1  0               Rx   d 8 00 00 00 00 00 00 00 00
  47.568797 1  0               Rx   d 8 00 00 00 00 00 00 00 00
  47.769039 1  0               Rx   d 8 00 00 00 00 00 00 00 00
  47.970066 1  0               Rx   d 8 00 00 00 00 00 00 00 00
  48.170896 1  0               Rx   d 8 00 00 00 00 00 00 00 00
  48.371996 1  0               Rx   d 8 00 00 00 00 00 00 00 00
  48.572310 1  0               Rx   d 8 00 00 00 00 00 00 00 00
  48.773330 1  0               Rx   d 8 00 00 00 00 00 00 00 00
  48.975218 1  0               Rx   d 8 00 00 00 00 00 00 00 00
  49.175780 1  0               Rx   d 8 00 00 00 00 00 00 00 00
  49.376198 1  0               Rx   d 8 00 00 00 00 00 00 00 00
  49.577079 1  0               Rx   d 8 00 00 00 00 00 00 00 00
  49.778128 1  0               Rx   d 8 00 00 00 00 00 00 00 00
  49.978540 1  0               Rx   d 8 00 00 00 00 00 00 00 00
  50.179871 1  0               Rx   d 8 00 00 00 00 00 00 00 00
  50.380088 1  0               Rx   d 8 00 00 00 00 00 00 00 00
  50.580846 1  0               Rx   d 8 00 00 00 00 00 00 00 00
  50.781325 1  0               Rx   d 8 00 00 00 00 00 00 00 00
  50.982477 1  0               Rx   d 8 00 00 00 00 00 00 00 00
  51.182651 1  0               Rx   d 8 00 00 00 00 00 00 12 00
  51.383578 1  0               Rx   d 8 00 00 00 00 00 00 10 00
  51.584095 1  0               Rx   d 8 00 00 00 00 00 00 0E 00
  51.784794 1  0               Rx   d 8 00 00 00 00 00 00 0C 00
  51.985412 1  0               Rx   d 8 00 00 00 00 00 00 0A 00
  52.186861 1  0               Rx   d 8 00 00 00 00 00 00 08 00
  52.387832 1  0               Rx   d 8 00 00 00 00 00 00 06 00
  52.588288 1  0               Rx   d 8 00 00 00 00 00 00 04 00
  52.789157 1  0               Rx   d 8 00 00 00 00 00 00 02 00
  52.989942 1  0               Rx   d 8 00 00 00 00 00 00 00 00
  53.190327 1  0               Rx   d 8 00 00 00 00 00 00 00 32
  53.391588 1  0               Rx   d 8 00 00 00 00 00 00 00 66
  53.592249 1  0               Rx   d 8 00 00 00 00 00 00 00 98
  53.792386 1  0               Rx   d 8 00 00 00 00 00 00 00 CC
  53.992968 1  0               Rx   d 8 00 00 00 00 00 00 01 00
  54.193367 1  0               Rx   d 8 00 00 00 00 00 00 01 32
  54.394716 1  0               Rx   d 8 00 00 00 00 00 00 01 66
  54.595105 1  0               Rx   d 8 00 00 00 00 00 00 01 98
  54.795731 1  0               Rx   d 8 00 00 00 00 00 00 01 CC
  54.996284 1  0               Rx   d 8 00 00 00 00 00 00 02 00
  55.197576 1  0               Rx   d 8 00 00 00 00 00 00 02 32
  55.398054 1  0               Rx   d 8 00 00 00 00 00 00 02 66
  55.598364 1  0               Rx   d 8 00 00 00 00 00 00 02 98
  55.798965 1  0               Rx   d 8 00 00 00 00 00 00 02 CC
  55.999265 1  0               Rx   d 8 00 00 00 00 00 00 03 00
  56.199561 1  0               Rx   d 8 00 00 00 00 00 00 00 00
  56.400268 1  0               Rx   d 8 00 00 00 00 00 00 00 00
  56.601059 1  0               Rx   d 8 00 00 00 00 00 00 00 00
  56.801284 1  0               Rx   d 8 00 00 00 00 00 00 00 00
  57.002356 1  0               Rx   d 8 00 00 00 00 00 00 00 00
  57.202816 1  0               Rx   d 8 00 00 00 00 00 00 00 00
  57.404465 1  0               Rx   d 8 00 00 00 00 00 00 00 00
  57.604978 1  0               Rx   d 8 00 00 00 00 00 00 00 00
  57.805539 1  0               Rx   d 8 00 00 00 00 00 00 00 00
  58.006555 1  0               Rx   d 8 00 00 00 00 00 00 00 00
  58.207292 1  0               Rx   d 8 00 00 00 00 00 00 00 00
  58.407613 1  0               Rx   d 8 00 00 00 00 00 00 00 00
  58.607932 1  0               Rx   d 8 00 00 00 00 00 00 00 00
  58.808839 1  0               Rx   d 8 00 00 00 00 00 00 00 00
  59.009580 1  0               Rx   d 8 00 00 00 00 00 00 00 00
  59.210003 1  0               Rx   d 8 00 00 00 00 00 00 00 00
  59.410177 1  0               Rx   d 8 00 00 00 00 00 00 00 00
  59.610613 1  0               Rx   d 8 00 00 00 00 00 00 00 00
  59.811194 1  0               Rx   d 8 00 00 00 00 00 00 00 00
  60.012120 1  0               Rx   d 8 00 00 00 00 00 00 00 00
  60.212784 1  0               Rx   d 8 00 00 00 00 00 00 00 00
  60.413841 1  0               Rx   d 8 00 00 00 00 00 00 00 00
  60.614435 1  0               Rx   d 8 00 00 00 00 00 00 00 00
  60.815231 1  0               Rx   d 8 00 00 00 00 00 00 00 00
  61.015910 1  0               Rx   d 8 00 00 00 00 00 00 07 FE
  61.216506 1  0               Rx   d 8 00 00 00 00 00 00 08 32
  61.416722 1  0               Rx   d 8 00 00 00 00 00 00 08 66
  61.617300 1  0               Rx   d 8 00 00 00 00 00 00 08 98
  61.817810 1  0               Rx   d 8 00 00 00 00 00 00 08 CC
  62.018343 1  0               Rx   d 8 00 00 00 00 00 00 08 FE
  62.218622 1  0               Rx   d 8 00 00 00 00 00 00 09 32
  62.419551 1  0               Rx   d 8 00 00 00 00 00 00 09 66
  62.620102 1  0               Rx   d 8 00 00 00 00 00 00 09 98
  62.821311 1  0               Rx   d 8 00 00 00 00 00 00 09 CC
  63.021686 1  0               Rx   d 8 00 00 00 00 00 00 09 FE
  63.222351 1  0               Rx   d 8 00 00 00 00 00 00 0A 32
  63.422926 1  0               Rx   d 8 00 00 00 00 00 00 0A 66
  63.623731 1  0               Rx   d 8 00 00 00 00 00 00 0A 98
  63.824543 1  0               Rx   d 8 00 00 00 00 00 00 0A CC
  64.025549 1  0               Rx   d 8 00 00 00 00 00 00 0A FE
  64.226680 1  0               Rx   d 8 00 00 00 00 00 00 0B 32
  64.427567 1  0               Rx   d 8 00 00 00 00 00 00 0B 66
  64.628603 1  0               Rx   d 8 00 00 00 00 00 00 0B 98
  64.829281 1  0               Rx   d 8 00 00 00 00 00 00 0B CC
  65.029458 1  0               Rx   d 8 00 00 00 00 00 00 0B FE
  65.230602 1  0               Rx   d 8 00 00 00 00 00 00 0C 32
  65.431146 1  0               Rx   d 8 00 00 00 00 00 00 0C 66
  65.631565 1  0               Rx   d 8 00 00 00 00 00 00 0C 98
  65.832193 1  0               Rx   d 8 00 00 00 00 00 00 0C CC
  66.033275 1  0               Rx   d 8 00 00 00 00 00 00 00 00
  66.233478 1  0               Rx   d 8 00 00 00 00 00 00 00 00
  66.433824 1  0               Rx   d 8 00 00 00 00 00 00 00 00
  66.634036 1  0               Rx   d 8 00 00 00 00 00 00 00 00
  66.834443 1  0               Rx   d 8 00 00 00 00 00 00 00 00
  67.035303 1  0               Rx   d 8 00 00 00 00 00 00 00 00
  67.235911 1  0               Rx   d 8 00 00 00 00 00 00 00 00
  67.436246 1  0               Rx   d 8 00 00 00 00 00 00 00 00
  67.636459 1  0               Rx   d 8 00 00 00 00 00 00 00 00
  67.837559 1  0               Rx   d 8 00 00 00 00 00 00 00 00
  68.038290 1  0               Rx   d 8 00 00 00 00 00 00 00 00
  68.239218 1  0               Rx   d 8 00 00 00 00 00 00 00 00
  68.439848 1  0               Rx   d 8 00 00 00 00 00 00 00 00
  68.640949 1  0               Rx   d 8 00 00 00 00 00 00 00 00
  68.841707 1  0               Rx   d 8 00 00 00 00 00 00 00 00
  69.042367 1  0               Rx   d 8 00 00 00 00 00 00 00 00
  69.242794 1  0               Rx   d 8 00 00 00 00 00 00 00 00
  69.444186 1  0               Rx   d 8 00 00 00 00 00 00 00 00
  69.645299 1  0               Rx   d 8 00 00 00 00 00 00 00 00
  69.845907 1  0               Rx   d 8 00 00 00 00 00 00 00 00
  70.046190 1  0               Rx   d 8 00 00 00 00 00 00 00 00
  70.247387 1  0               Rx   d 8 00 00 00 00 00 00 00 00
  70.448524 1  0               Rx   d 8 00 00 00 00 00 00 00 00
  70.649526 1  0               Rx   d 8 00 00 00 00 00 00 00 00
  70.850244 1  0               Rx   d 8 00 00 00 00 00 00 00 00
  71.050608 1  0               Rx   d 8 00 00 00 00 00 00 11 FE
  71.250850 1  0               Rx   d 8 00 00 00 00 00 00 12 32
  71.451347 1  0               Rx   d 8 00 00 00 00 00 00 12 66
  71.652633 1  0               Rx   d 8 00 00 00 00 00 00 12 98
  71.853189 1  0               Rx   d 8 00 00 00 00 00 00 12 CC
  72.053983 1  0               Rx   d 8 00 00 00 00 00 00 13 00
  72.254639 1  0               Rx   d 8 00 00 00 00 00 00 13 32
  72.455122 1  0               Rx   d 8 00 00 00 00 00 00 13 66
  72.655692 1  0               Rx   d 8 00 00 00 00 00 00 13 98
  72.856575 1  0               Rx   d 8 00 00 00 00 00 00 13 CC
  73.057111 1  0               Rx   d 8 00 00 00 00 00 00 14 00
  73.257433 1  0               Rx   d 8 00 00 00 00 00 00 14 32
  73.458035 1  0               Rx   d 8 00 00 00 00 00 00 14 66
  73.658563 1  0               Rx   d 8 00 00 00 00 00 00 14 98
  73.858949 1  0               Rx   d 8 00 00 00 00 00 00 14 CC
  74.059429 1  0               Rx   d 8 00 00 00 00 00 00 15 00
  74.259956 1  0               Rx   d 8 00 00 00 00 00 00 15 32
  74.460450 1  0               Rx   d 8 00 00 00 00 00 00 15 66
  74.661020 1  0               Rx   d 8 00 00 00 00 00 00 15 98
  74.861275 1  0               Rx   d 8 00 00 00 00 00 00 15 CC
  75.061860 1  0               Rx   d 8 00 00 00 00 00 00 16 00
  75.262959 1  0               Rx   d 8 00 00 00 00 00 00 16 32
  75.463897 1  0               Rx   d 8 00 00 00 00 00 00 16 66
  75.664448 1  0               Rx   d 8 00 00 00 00 00 00 16 98
  75.864638 1  0               Rx   d 8 00 00 00 00 00 00 16 CC
  76.065108 1  0               Rx   d 8 00 00 00 00 00 00 00 00
  76.265941 1  0               Rx   d 8 00 00 00 00 00 00 00 00
  76.466668 1  0               Rx   d 8 00 00 00 00 00 00 00 00
  76.667414 1  0               Rx   d 8 00 00 00 00 00 00 00 00
  76.867975 1  0               Rx   d 8 00 00 00 00 00 00 00 00
  77.068637 1  0               Rx   d 8 00 00 00 00 00 00 00 00
  77.269838 1  0               Rx   d 8 00 00 00 00 00 00 00 00
  77.471315 1  0               Rx   d 8 00 00 00 00 00 00 00 00
  77.672213 1  0               Rx   d 8 00 00 00 00 00 00 00 00
  77.873438 1  0               Rx   d 8 00 00 00 00 00 00 00 00
