date Wed Jul 28 06:47:19 pm 2010
base hex  timestamps absolute
internal events logged
// version 7.0.1
Begin TriggerBlock Wed Jul 28 06:47:19 pm 2010
   0.000000 Start of measurement
   0.005502 CAN 1 Status:chip status error active
   0.005675 CAN 2 Status:chip status error active
   0.007096 1  B6              Rx   d 5 06 06 80 00 C8
   0.007123 2  85              Rx   d 8 00 00 00 00 FF FF F3 1D
   0.007333 1  19E             Rx   d 8 00 EC EF FC FF 0C 00 85
   0.010300 2  D8              Rx   d 8 01 80 00 FF F8 7F 05 34
   0.010421 1  A8              Rx   d 8 EE 45 01 00 00 00 00 00
   0.010541 2  E3              Rx   d 8 00 80 10 00 FE 7F 05 24
   0.010664 1  A9              Rx   d 8 2C 05 00 00 7D 00 00 00
   0.010779 2  165             Rx   d 8 00 00 00 E0 0F 20 E5 C9
   0.010900 1  AA              Rx   d 8 B1 95 01 0D 40 1F 04 00
   0.014376 2  C9              Rx   d 8 00 00 20 FF E7 00 00 00
   0.017110 2  85              Rx   d 8 00 00 00 00 FF FF F4 4E
   0.017142 1  1A0             Rx   d 8 00 80 00 00 80 00 78 1B
   0.017395 1  CE              Rx   d 8 00 00 00 00 00 00 00 00
   0.017643 1  2B2             Rx   d 8 00 00 00 00 00 80 E7 FF
   0.020274 2  D8              Rx   d 8 01 80 00 FF F9 7F 06 9C
   0.020395 1  A8              Rx   d 8 EF 46 01 00 00 00 00 00
   0.020516 2  E3              Rx   d 8 00 80 10 00 00 80 06 C3
   0.020638 1  A9              Rx   d 8 2D 06 00 00 7D 00 00 00
   0.020753 2  165             Rx   d 8 00 00 00 E0 0F 20 E6 EE
   0.020872 1  AA              Rx   d 8 B2 96 01 0D 40 1F 04 00
   0.024349 2  C9              Rx   d 8 00 00 30 FF F7 00 00 00
   0.027114 1  B6              Rx   d 5 07 07 80 00 C8
   0.027139 2  85              Rx   d 8 00 00 00 00 FF FF F5 53
   0.027351 1  19E             Rx   d 8 00 EC EF FC FF 0C 00 85
   0.030306 2  D8              Rx   d 8 FF 7F 00 FF F5 7F 07 2A
   0.030433 1  A8              Rx   d 8 F0 47 01 00 00 00 00 00
   0.030546 2  E3              Rx   d 8 00 80 10 00 03 80 07 52
   0.030677 1  A9              Rx   d 8 2E 07 00 00 7D 00 00 00
   0.030784 2  165             Rx   d 8 00 00 00 E0 0F 20 E7 F3
   0.030911 1  AA              Rx   d 8 B3 97 01 0D 40 1F 04 00
   0.034390 2  C9              Rx   d 8 FF FF 40 00 08 00 00 00
   0.037111 2  85              Rx   d 8 00 00 00 00 FF FF F6 74
   0.037140 1  1A0             Rx   d 8 00 80 00 00 80 00 88 2B
   0.037392 1  CE              Rx   d 8 00 00 00 00 00 00 00 00
   0.037640 1  2B2             Rx   d 8 00 00 00 00 00 80 E7 FF
   0.037821 1  2B3             Rx   d 5 0B 0C 80 00 C8
   0.040329 2  D8              Rx   d 8 FE 7F 00 FF F4 7F 08 43
   0.040457 1  A8              Rx   d 8 F1 48 01 00 00 00 00 00
   0.040572 2  E3              Rx   d 8 00 80 10 00 F5 7F 08 25
   0.040702 1  A9              Rx   d 8 2F 08 00 00 7D 00 00 00
   0.040808 2  165             Rx   d 8 00 00 00 E0 0F 20 E8 48
   0.040942 1  AA              Rx   d 8 B4 98 01 0D 40 1F 04 00
   0.044301 2  C9              Rx   d 8 FF FF 50 00 00 00 00 00
   0.047093 1  B6              Rx   d 5 08 08 80 00 C8
   0.047123 2  85              Rx   d 8 00 00 00 00 FF FF F7 69
   0.047329 1  19E             Rx   d 8 00 EC EF FC FF 0C 00 85
   0.050362 2  D8              Rx   d 8 FF 7F 00 FF F5 7F 09 8C
   0.050489 1  A8              Rx   d 8 F2 49 01 00 00 00 00 00
   0.050600 2  E3              Rx   d 8 00 80 10 00 F6 7F 09 B4
   0.050734 1  A9              Rx   d 8 30 09 00 00 7D 00 00 00
   0.050836 2  165             Rx   d 8 00 00 00 E0 0F 20 E9 55
   0.050972 1  AA              Rx   d 8 B5 99 01 0D 40 1F 04 00
   0.051160 1  130             Rx   d 5 05 00 00 40 36
   0.054298 2  C9              Rx   d 8 FF FF 60 00 10 00 00 00
   0.055412 1  480             Rx   d 8 00 04 FF FF 00 00 00 00
   0.057143 2  85              Rx   d 8 00 00 00 00 FF FF F8 D2
   0.057177 1  1A0             Rx   d 8 00 80 00 00 80 00 98 3B
   0.057429 1  CE              Rx   d 8 00 00 00 00 00 00 00 00
   0.057677 1  2B2             Rx   d 8 00 00 00 00 00 80 E7 FF
   0.060381 2  D8              Rx   d 8 02 80 00 FF FB 7F 0A E4
   0.060507 1  A8              Rx   d 8 F3 4A 01 00 00 00 00 00
   0.060619 2  E3              Rx   d 8 00 80 10 00 F9 7F 0A 15
   0.060754 1  A9              Rx   d 8 31 0A 00 00 7D 00 00 00
   0.060855 2  165             Rx   d 8 00 00 00 E0 0F 20 EA 72
   0.060990 1  AA              Rx   d 8 B6 9A 01 0D 40 1F 04 00
   0.064336 2  C9              Rx   d 8 01 00 70 FF EF 00 00 00
   0.067096 1  B6              Rx   d 5 09 09 80 00 C8
   0.067124 2  85              Rx   d 8 00 00 00 00 FF FF F9 CF
   0.067333 1  19E             Rx   d 8 00 EC EF FC FF 0C 00 85
   0.070289 2  D8              Rx   d 8 00 80 00 FF F7 7F 0B 49
   0.070415 1  A8              Rx   d 8 F4 4B 01 00 00 00 00 00
   0.070527 2  E3              Rx   d 8 00 80 10 00 F1 7F 0B 04
   0.070660 1  A9              Rx   d 8 32 0B 00 00 7D 00 00 00
   0.070766 2  165             Rx   d 8 00 00 00 E0 0F 20 EB 6F
   0.070894 1  AA              Rx   d 8 B7 9B 01 0D 40 1F 04 00
   0.074364 2  C9              Rx   d 8 00 00 80 FF E7 00 00 00
   0.075355 1  492             Rx   d 8 12 04 FF FF 00 00 00 00
   0.077122 2  85              Rx   d 8 00 00 00 00 FF FF FA E8
   0.077161 1  1A6             Rx   d 8 00 00 00 00 00 00 00 FE
   0.077413 1  CE              Rx   d 8 00 00 00 00 00 00 00 00
   0.077655 1  1A0             Rx   d 8 00 80 00 00 80 00 A8 4B
   0.077903 1  2B2             Rx   d 8 00 00 00 00 00 80 E7 FF
   0.080275 2  D8              Rx   d 8 00 80 00 FF F7 7F 0C 1A
   0.080396 1  A8              Rx   d 8 F5 4C 01 00 00 00 00 00
   0.080515 2  E3              Rx   d 8 00 80 10 00 FA 7F 0C D7
   0.080638 1  A9              Rx   d 8 33 0C 00 00 7D 00 00 00
   0.080753 2  165             Rx   d 8 00 00 00 E0 0F 20 EC 3C
   0.080873 1  AA              Rx   d 8 B8 9C 01 0D 40 1F 04 00
   0.084355 2  C9              Rx   d 8 00 00 90 FF F7 00 00 00
   0.085347 1  498             Rx   d 8 18 04 FF FF 00 00 00 00
   0.087114 1  B6              Rx   d 5 0A 0A 80 00 C8
   0.087146 2  85              Rx   d 8 00 00 00 00 FF FF FB F5
   0.087350 1  19E             Rx   d 8 00 EC EF FC FF 0C 00 85
   0.087534 1  2B3             Rx   d 5 FB FD 7F 00 C8
   0.087782 1  4A9             Rx   d 8 29 01 FF FF FF FF FF FF
   0.090364 2  D8              Rx   d 8 00 80 00 FF F7 7F 0D 07
   0.090487 1  A8              Rx   d 8 F6 4D 01 00 00 00 00 00
   0.090605 2  E3              Rx   d 8 00 80 10 00 FC 7F 0D CF
   0.090731 1  A9              Rx   d 8 34 0D 00 00 7D 00 00 00
   0.090841 2  165             Rx   d 8 00 00 00 E0 0F 20 ED 21
   0.090967 1  AA              Rx   d 8 B9 9D 01 0D 40 1F 04 00
   0.094325 2  C9              Rx   d 8 00 00 A0 FF EF 00 00 00
   0.095438 1  4B0             Rx   d 8 30 04 FF FF 00 00 00 00
   0.097127 2  85              Rx   d 8 00 00 00 00 FF FF FC A6
   0.097162 1  1A0             Rx   d 8 00 80 00 00 80 00 B8 5B
   0.097414 1  CE              Rx   d 8 00 00 00 00 00 00 00 00
   0.097662 1  2B2             Rx   d 8 00 00 00 00 00 80 E7 FF
   0.100306 2  D8              Rx   d 8 02 80 00 FF FA 7F 0E 1F
   0.100433 1  A8              Rx   d 8 F7 4E 01 00 00 00 00 00
   0.100544 2  E3              Rx   d 8 00 80 10 00 EF 7F 0E 7C
   0.100675 1  A9              Rx   d 8 35 0E 00 00 7D 00 00 00
   0.100782 2  165             Rx   d 8 00 00 00 E0 0F 20 EE 06
   0.100911 1  AA              Rx   d 8 BA 9E 01 0D 40 1F 04 00
   0.104383 2  C9              Rx   d 8 01 00 B0 FF E7 00 00 00
   0.107096 1  B6              Rx   d 5 0B 0B 80 00 C8
   0.107127 2  85              Rx   d 8 00 00 00 00 FF FF FD BB
   0.107332 1  19E             Rx   d 8 00 EC EF FC FF 0C 00 85
   0.110339 2  D8              Rx   d 8 FF 7F 00 FF F6 7F 00 F5
   0.110468 1  A8              Rx   d 8 E9 40 01 00 00 00 00 00
   0.110580 2  E3              Rx   d 8 00 80 10 00 E6 7F 00 59
   0.110713 1  A9              Rx   d 8 27 00 00 00 7D 00 00 00
   0.110820 2  165             Rx   d 8 00 00 00 E0 0F 20 E0 A0
   0.110951 1  AA              Rx   d 8 AC 90 01 0D 40 1F 04 00
   0.114303 2  C9              Rx   d 8 00 00 C0 FF F7 00 00 00
   0.117113 2  85              Rx   d 8 00 00 00 00 FF FF FE 9C
   0.117148 1  1A0             Rx   d 8 00 80 00 00 80 00 C8 6B
   0.117400 1  CE              Rx   d 8 00 00 00 00 00 00 00 00
   0.117648 1  2B2             Rx   d 8 00 00 00 00 00 80 E7 FF
   0.120319 2  D8              Rx   d 8 01 80 00 FF F9 7F 01 CF
   0.120439 1  A8              Rx   d 8 EA 41 01 00 00 00 00 00
   0.120560 2  E3              Rx   d 8 00 80 10 00 F0 7F 01 59
   0.120685 1  A9              Rx   d 8 28 01 00 00 7D 00 00 00
   0.120796 2  165             Rx   d 8 00 00 00 E0 0F 20 E1 BD
   0.120920 1  AA              Rx   d 8 AD 91 01 0D 40 1F 04 00
   0.124276 2  C9              Rx   d 8 00 00 D0 FF EF 00 00 00
   0.127120 1  B6              Rx   d 5 0C 0C 80 00 C8
   0.127147 2  85              Rx   d 8 00 00 00 00 FF FF F0 3A
   0.127356 1  19E             Rx   d 8 00 EC EF FC FF 0C 00 85
   0.130351 2  D8              Rx   d 8 01 80 00 FF FA 7F 02 64
   0.130477 1  A8              Rx   d 8 EB 42 01 00 00 00 00 00
   0.130591 2  E3              Rx   d 8 00 80 10 00 02 80 02 B4
   0.130721 1  A9              Rx   d 8 29 02 00 00 7D 00 00 00
   0.130828 2  165             Rx   d 8 00 00 00 E0 0F 20 E2 9A
   0.130955 1  AA              Rx   d 8 AE 92 01 0D 40 1F 04 00
   0.134314 2  C9              Rx   d 8 01 00 E0 FF E7 00 00 00
   0.137114 2  85              Rx   d 8 00 00 00 00 FF FF F1 27
   0.137148 1  1A0             Rx   d 8 00 80 00 00 80 00 D8 7B
   0.137400 1  CE              Rx   d 8 00 00 00 00 00 00 00 00
   0.137648 1  2B2             Rx   d 8 00 00 00 00 00 80 E7 FF
   0.137831 1  2B3             Rx   d 5 FC FE 7F 00 C8
   0.140375 2  D8              Rx   d 8 01 80 00 FF FA 7F 03 79
   0.140497 1  A8              Rx   d 8 EC 43 01 00 00 00 00 00
   0.140617 2  E3              Rx   d 8 00 80 10 00 F3 7F 03 EF
   0.140740 1  A9              Rx   d 8 2A 03 00 00 7D 00 00 00
   0.140854 2  165             Rx   d 8 00 00 00 E0 0F 20 E3 87
   0.140978 1  AA              Rx   d 8 AF 93 01 0D 40 1F 04 00
   0.144338 2  C9              Rx   d 8 01 00 00 FF F7 00 00 00
   0.144367 1  308             Rx   d 3 30 02 00
   0.144589 2  AA              Rx   d 8 00 00 00 00 00 00 00 00
   0.145345 1  310             Rx   d 7 78 03 AB 1E 00 D0 07
   0.147153 1  B6              Rx   d 5 0D 0D 80 00 C8
   0.147187 2  85              Rx   d 8 00 00 00 00 FF FF F2 00
   0.147390 1  19E             Rx   d 8 00 EC EF FC FF 0C 00 85
   0.150307 2  D8              Rx   d 8 FE 7F 00 FF F3 7F 04 55
   0.150438 1  A8              Rx   d 8 ED 44 01 00 00 00 00 00
   0.150550 2  E3              Rx   d 8 00 80 10 00 FD 7F 04 B5
   0.150682 1  A9              Rx   d 8 2B 04 00 00 7D 00 00 00
   0.150788 2  165             Rx   d 8 00 00 00 E0 0F 20 E4 D4
   0.150917 1  AA              Rx   d 8 B0 94 01 0D 40 1F 04 00
   0.151105 1  130             Rx   d 5 05 00 00 40 47
   0.154357 2  C9              Rx   d 8 FF FF 10 00 08 00 00 00
   0.157137 2  85              Rx   d 8 00 00 00 00 FF FF F3 1D
   0.157170 1  1A0             Rx   d 8 00 80 00 00 80 00 E8 8B
   0.157422 1  CE              Rx   d 8 00 00 00 00 00 00 00 00
   0.157670 1  2B2             Rx   d 8 00 00 00 00 00 80 E7 FF
   0.160355 2  D8              Rx   d 8 00 80 00 FF F6 7F 05 60
   0.160475 1  A8              Rx   d 8 EE 45 01 00 00 00 00 00
   0.160596 2  E3              Rx   d 8 00 80 10 00 F4 7F 05 2B
   0.160717 1  A9              Rx   d 8 2C 05 00 00 7D 00 00 00
   0.160834 2  165             Rx   d 8 00 00 00 E0 0F 20 E5 C9
   0.160953 1  AA              Rx   d 8 B1 95 01 0D 40 1F 04 00
   0.164314 2  C9              Rx   d 8 00 00 20 FF E7 00 00 00
   0.167110 1  B6              Rx   d 5 0E 0E 80 00 C8
   0.167139 2  85              Rx   d 8 00 00 00 00 FF FF F4 4E
   0.167346 1  19E             Rx   d 8 00 EC EF FC FF 0C 00 85
   0.170371 2  D8              Rx   d 8 FF 7F 00 FF F5 7F 06 37
   0.170498 1  A8              Rx   d 8 EF 46 01 00 00 00 00 00
   0.170611 2  E3              Rx   d 8 00 80 10 00 F2 7F 06 09
   0.170741 1  A9              Rx   d 8 2D 06 00 00 7D 00 00 00
   0.170848 2  165             Rx   d 8 00 00 00 E0 0F 20 E6 EE
   0.170975 1  AA              Rx   d 8 B2 96 01 0D 40 1F 04 00
   0.174334 2  C9              Rx   d 8 FF FF 30 00 10 00 00 00
   0.177114 2  85              Rx   d 8 00 00 00 00 FF FF F5 53
   0.177151 1  1A6             Rx   d 8 00 00 00 00 00 00 90 FF
   0.177404 1  CE              Rx   d 8 00 00 00 00 00 00 00 00
   0.177646 1  1A0             Rx   d 8 00 80 00 00 80 00 08 AA
   0.177894 1  2B2             Rx   d 8 00 00 00 00 00 80 E7 FF
   0.180275 2  D8              Rx   d 8 02 80 00 FF FA 7F 07 EA
   0.180401 1  A8              Rx   d 8 F0 47 01 00 00 00 00 00
   0.180519 2  E3              Rx   d 8 00 80 10 00 ED 7F 07 8A
   0.180645 1  A9              Rx   d 8 2E 07 00 00 7D 00 00 00
   0.180758 2  165             Rx   d 8 00 00 00 E0 0F 20 E7 F3
   0.180880 1  AA              Rx   d 8 B3 97 01 0D 40 1F 04 00
   0.184356 2  C9              Rx   d 8 01 00 40 FF EF 00 00 00
   0.187106 1  B6              Rx   d 5 FF 00 80 00 C8
   0.187133 2  85              Rx   d 8 00 00 00 00 FF FF F6 74
   0.187346 1  19E             Rx   d 8 00 EC 0F FC FF 0C 00 A4
   0.187531 1  2B3             Rx   d 5 EE F0 7F 00 C8
   0.187717 1  374             Rx   d 5 80 80 80 80 FC
   0.187965 1  4A9             Rx   d 8 29 02 FF FF FF FF FF FF
   0.190323 2  D8              Rx   d 8 00 80 00 FF F6 7F 08 E1
   0.190453 1  A8              Rx   d 8 F1 48 01 00 00 00 00 00
   0.190561 2  E3              Rx   d 8 00 80 10 00 F7 7F 08 26
   0.190698 1  A9              Rx   d 8 2F 08 00 00 7D 00 00 00
   0.190797 2  165             Rx   d 8 00 00 00 E0 0F 20 E8 48
   0.190938 1  AA              Rx   d 8 B4 98 01 0D 40 1F 04 00
   0.194292 2  C9              Rx   d 8 00 00 50 FF E7 00 00 00
   0.197114 2  85              Rx   d 8 00 00 00 00 FF FF F7 69
   0.197146 1  1A0             Rx   d 8 00 80 00 00 80 00 18 BA
   0.197399 1  CE              Rx   d 8 00 00 00 00 00 00 00 00
   0.197647 1  2B2             Rx   d 8 00 00 00 00 00 80 E7 FF
   0.200292 2  D8              Rx   d 8 FF 7F 00 FF F5 7F 09 8C
   0.200419 1  A8              Rx   d 8 F2 49 01 00 00 00 00 00
   0.200530 2  E3              Rx   d 8 00 80 10 00 F0 7F 09 B1
   0.200663 1  A9              Rx   d 8 30 09 00 00 7D 00 00 00
   0.200767 2  165             Rx   d 8 00 00 00 E0 0F 20 E9 55
   0.200902 1  AA              Rx   d 8 B5 99 01 0D 40 1F 04 00
   0.204377 2  C9              Rx   d 8 FF FF 60 00 10 00 00 00
   0.207111 1  B6              Rx   d 5 00 01 80 00 C8
   0.207134 2  85              Rx   d 8 00 00 00 00 FF FF F8 D2
   0.207351 1  19E             Rx   d 8 00 EC 0F FC FF 0C 00 A4
   0.210332 2  D8              Rx   d 8 00 80 00 FF F8 7F 0A D2
   0.210457 1  A8              Rx   d 8 F3 4A 01 00 00 00 00 00
   0.210573 2  E3              Rx   d 8 00 80 10 00 EA 7F 0A 81
   0.210704 1  A9              Rx   d 8 31 0A 00 00 7D 00 00 00
   0.210809 2  165             Rx   d 8 00 00 00 E0 0F 20 EA 72
   0.210940 1  AA              Rx   d 8 B6 9A 01 0D 40 1F 04 00
   0.214298 2  C9              Rx   d 8 00 00 70 FF EF 00 00 00
   0.217118 2  85              Rx   d 8 00 00 00 00 FF FF F9 CF
   0.217152 1  1A0             Rx   d 8 00 80 00 00 80 00 28 CA
   0.217405 1  CE              Rx   d 8 00 00 00 00 00 00 00 00
   0.217653 1  2B2             Rx   d 8 00 00 00 00 00 80 E7 FF
   0.220304 2  D8              Rx   d 8 01 80 00 FF FA 7F 0B 91
   0.220431 1  A8              Rx   d 8 F4 4B 01 00 00 00 00 00
   0.220546 2  E3              Rx   d 8 00 80 10 00 FE 7F 0B 82
   0.220676 1  A9              Rx   d 8 32 0B 00 00 7D 00 00 00
   0.220785 2  165             Rx   d 8 00 00 00 E0 0F 20 EB 6F
   0.220910 1  AA              Rx   d 8 B7 9B 01 0D 40 1F 04 00
   0.224383 2  C9              Rx   d 8 01 00 80 FF E7 00 00 00
   0.227119 1  B6              Rx   d 5 02 02 80 00 C8
   0.227145 2  85              Rx   d 8 00 00 00 00 FF FF FA E8
   0.227359 1  19E             Rx   d 8 00 EC 0F FC FF 0C 00 A4
   0.230344 2  D8              Rx   d 8 01 80 00 FF F8 7F 0C C1
   0.230467 1  A8              Rx   d 8 F5 4C 01 00 00 00 00 00
   0.230588 2  E3              Rx   d 8 00 80 10 00 00 80 0C 11
   0.230709 1  A9              Rx   d 8 33 0C 00 00 7D 00 00 00
   0.230826 2  165             Rx   d 8 00 00 00 E0 0F 20 EC 3C
   0.230944 1  AA              Rx   d 8 B8 9C 01 0D 40 1F 04 00
   0.234308 2  C9              Rx   d 8 00 00 90 FF F7 00 00 00
   0.237121 2  85              Rx   d 8 00 00 00 00 FF FF FB F5
   0.237152 1  1A0             Rx   d 8 00 80 00 00 80 00 38 DA
   0.237404 1  CE              Rx   d 8 00 00 00 00 00 00 00 00
   0.237653 1  2B2             Rx   d 8 00 00 00 00 00 80 E7 FF
   0.237839 1  2B3             Rx   d 5 FF 01 80 00 C8
   0.240361 2  D8              Rx   d 8 FD 7F 00 FF F2 7F 0D C8
   0.240487 1  A8              Rx   d 8 F6 4D 01 00 00 00 00 00
   0.240602 2  E3              Rx   d 8 00 80 10 00 F0 7F 0D C5
   0.240732 1  A9              Rx   d 8 34 0D 00 00 7D 00 00 00
   0.240838 2  165             Rx   d 8 00 00 00 E0 0F 20 ED 21
   0.240968 1  AA              Rx   d 8 B9 9D 01 0D 40 1F 04 00
   0.244327 2  C9              Rx   d 8 FE FF A0 00 08 00 00 00
   0.247107 1  B6              Rx   d 5 03 03 80 00 C8
   0.247133 2  85              Rx   d 8 00 00 00 00 FF FF FC A6
   0.247347 1  19E             Rx   d 8 00 EC 0F FC FF 0C 00 A4
   0.250286 2  D8              Rx   d 8 00 80 00 FF F7 7F 0E 20
   0.250414 1  A8              Rx   d 8 F7 4E 01 00 00 00 00 00
   0.250524 2  E3              Rx   d 8 00 80 10 00 FE 7F 0E EB
   0.250656 1  A9              Rx   d 8 35 0E 00 00 7D 00 00 00
   0.250762 2  165             Rx   d 8 00 00 00 E0 0F 20 EE 06
   0.250892 1  AA              Rx   d 8 BA 9E 01 0D 40 1F 04 00
   0.251078 1  130             Rx   d 5 05 00 00 40 58
   0.254326 2  C9              Rx   d 8 00 00 B0 FF E7 00 00 00
   0.257141 2  85              Rx   d 8 00 00 00 00 FF FF FD BB
   0.257173 1  1A0             Rx   d 8 00 80 00 00 80 00 48 EA
   0.257425 1  CE              Rx   d 8 00 00 00 00 00 00 00 00
   0.257673 1  2B2             Rx   d 8 00 00 00 00 00 80 E7 FF
   0.260327 2  D8              Rx   d 8 FE 7F 00 FF F3 7F 00 21
   0.260458 1  A8              Rx   d 8 E9 40 01 00 00 00 00 00
   0.260567 2  E3              Rx   d 8 00 80 10 00 F5 7F 00 CD
   0.260702 1  A9              Rx   d 8 27 00 00 00 7D 00 00 00
   0.260807 2  165             Rx   d 8 00 00 00 E0 0F 20 E0 A0
   0.260940 1  AA              Rx   d 8 AC 90 01 0D 40 1F 04 00
   0.264290 2  C9              Rx   d 8 FF FF C0 00 10 00 00 00
   0.267115 1  B6              Rx   d 5 04 04 80 00 C8
   0.267138 2  85              Rx   d 8 00 00 00 00 FF FF FE 9C
   0.267355 1  19E             Rx   d 8 00 EC 0F FC FF 0C 00 A4
   0.270347 2  D8              Rx   d 8 FF 7F 00 FF F5 7F 01 64
   0.270477 1  A8              Rx   d 8 EA 41 01 00 00 00 00 00
   0.270585 2  E3              Rx   d 8 00 80 10 00 F1 7F 01 D6
   0.270724 1  A9              Rx   d 8 28 01 00 00 7D 00 00 00
   0.270822 2  165             Rx   d 8 00 00 00 E0 0F 20 E1 BD
   0.270958 1  AA              Rx   d 8 AD 91 01 0D 40 1F 04 00
   0.274312 2  C9              Rx   d 8 FF FF D0 00 08 00 00 00
   0.277122 2  85              Rx   d 8 00 00 00 00 FF FF F0 3A
   0.277156 1  1A6             Rx   d 8 00 00 00 00 00 00 20 F1
   0.277408 1  CE              Rx   d 8 00 00 00 00 00 00 00 00
   0.277653 1  1A0             Rx   d 8 00 80 00 00 80 00 58 FA
   0.277901 1  2B2             Rx   d 8 00 00 00 00 00 80 E7 FF
   0.280365 2  D8              Rx   d 8 01 80 00 FF F8 7F 02 67
   0.280489 1  A8              Rx   d 8 EB 42 01 00 00 00 00 00
   0.280609 2  E3              Rx   d 8 00 80 10 00 F9 7F 02 FD
   0.280734 1  A9              Rx   d 8 29 02 00 00 7D 00 00 00
   0.280845 2  165             Rx   d 8 00 00 00 E0 0F 20 E2 9A
   0.280968 1  AA              Rx   d 8 AE 92 01 0D 40 1F 04 00
   0.284331 2  C9              Rx   d 8 00 00 E0 FF E7 00 00 00
   0.287111 1  B6              Rx   d 5 05 05 80 00 C8
   0.287138 2  85              Rx   d 8 00 00 00 00 FF FF F1 27
   0.287351 1  19E             Rx   d 8 00 EC 0F FC FF 0C 00 A4
   0.287536 1  2B3             Rx   d 5 F0 F2 7F 00 C8
   0.290334 2  D8              Rx   d 8 01 80 00 FF FA 7F 03 79
   0.290462 1  A8              Rx   d 8 EC 43 01 00 00 00 00 00
   0.290575 2  E3              Rx   d 8 00 80 10 00 F2 7F 03 60
   0.290704 1  A9              Rx   d 8 2A 03 00 00 7D 00 00 00
   0.290811 2  165             Rx   d 8 00 00 00 E0 0F 20 E3 87
   0.290942 1  AA              Rx   d 8 AF 93 01 0D 40 1F 04 00
   0.294299 2  C9              Rx   d 8 01 00 00 FF F7 00 00 00
   0.297125 2  85              Rx   d 8 00 00 00 00 FF FF F2 00
   0.297155 1  1A0             Rx   d 8 00 80 00 00 80 00 68 0B
   0.297407 1  CE              Rx   d 8 00 00 00 00 00 00 00 00
   0.297655 1  2B2             Rx   d 8 00 00 00 00 00 80 E7 FF
   0.300310 2  D8              Rx   d 8 FF 7F 00 FF F5 7F 04 0D
   0.300436 1  A8              Rx   d 8 ED 44 01 00 00 00 00 00
   0.300552 2  E3              Rx   d 8 00 80 10 00 FA 7F 04 3F
   0.300680 1  A9              Rx   d 8 2B 04 00 00 7D 00 00 00
   0.300791 2  165             Rx   d 8 00 00 00 E0 0F 20 E4 D4
   0.300915 1  AA              Rx   d 8 B0 94 01 0D 40 1F 04 00
   0.304279 2  C9              Rx   d 8 FF FF 10 00 08 00 00 00
   0.307119 1  B6              Rx   d 5 06 06 80 00 C8
   0.307146 2  85              Rx   d 8 00 00 00 00 FF FF F3 1D
   0.307360 1  19E             Rx   d 8 00 EC 0F FC FF 0C 00 A4
   0.310346 2  D8              Rx   d 8 00 80 00 FF F8 7F 05 69
   0.310468 1  A8              Rx   d 8 EE 45 01 00 00 00 00 00
   0.310587 2  E3              Rx   d 8 00 80 10 00 F6 7F 05 28
   0.310710 1  A9              Rx   d 8 2C 05 00 00 7D 00 00 00
   0.310825 2  165             Rx   d 8 00 00 00 E0 0F 20 E5 C9
   0.310946 1  AA              Rx   d 8 B1 95 01 0D 40 1F 04 00
   0.314310 2  C9              Rx   d 8 00 00 20 FF E7 00 00 00
   0.317124 2  85              Rx   d 8 00 00 00 00 FF FF F4 4E
   0.317157 1  1A0             Rx   d 8 00 80 00 00 80 00 78 1B
   0.317409 1  CE              Rx   d 8 00 00 00 00 00 00 00 00
   0.317657 1  2B2             Rx   d 8 00 00 00 00 00 80 E7 FF
   0.320316 2  D8              Rx   d 8 00 80 00 FF F8 7F 06 4E
   0.320442 1  A8              Rx   d 8 EF 46 01 00 00 00 00 00
   0.320558 2  E3              Rx   d 8 00 80 10 00 04 80 06 C5
   0.320684 1  A9              Rx   d 8 2D 06 00 00 7D 00 00 00
   0.320795 2  165             Rx   d 8 00 00 00 E0 0F 20 E6 EE
   0.320918 1  AA              Rx   d 8 B2 96 01 0D 40 1F 04 00
   0.324283 2  C9              Rx   d 8 00 00 30 FF F7 00 00 00
   0.327127 1  B6              Rx   d 5 07 07 80 00 C8
   0.327152 2  85              Rx   d 8 00 00 00 00 FF FF F5 53
   0.327367 1  19E             Rx   d 8 00 EC 0F FC FF 0C 00 A4
   0.330356 2  D8              Rx   d 8 00 80 00 FF F8 7F 07 53
   0.330478 1  A8              Rx   d 8 F0 47 01 00 00 00 00 00
   0.330597 2  E3              Rx   d 8 00 80 10 00 FE 7F 07 1E
   0.330722 1  A9              Rx   d 8 2E 07 00 00 7D 00 00 00
   0.330835 2  165             Rx   d 8 00 00 00 E0 0F 20 E7 F3
   0.330956 1  AA              Rx   d 8 B3 97 01 0D 40 1F 04 00
   0.334320 2  C9              Rx   d 8 00 00 40 FF EF 00 00 00
   0.337128 2  85              Rx   d 8 00 00 00 00 FF FF F6 74
   0.337158 1  1A0             Rx   d 8 00 80 00 00 80 00 88 2B
   0.337411 1  CE              Rx   d 8 00 00 00 00 00 00 00 00
   0.337659 1  2B2             Rx   d 8 00 00 00 00 00 80 E7 FF
   0.337847 1  2B3             Rx   d 5 01 03 80 00 C8
   0.340376 2  D8              Rx   d 8 01 80 00 FF F9 7F 08 3A
   0.340503 1  A8              Rx   d 8 F1 48 01 00 00 00 00 00
   0.340615 2  E3              Rx   d 8 00 80 10 00 F6 7F 08 A9
   0.340748 1  A9              Rx   d 8 2F 08 00 00 7D 00 00 00
   0.340851 2  165             Rx   d 8 00 00 00 E0 0F 20 E8 48
   0.340988 1  AA              Rx   d 8 B4 98 01 0D 40 1F 04 00
   0.344336 2  C9              Rx   d 8 01 00 50 FF E7 00 00 00
   0.344586 2  AA              Rx   d 8 00 00 00 00 00 00 00 00
   0.347117 1  B6              Rx   d 5 08 08 80 00 C8
   0.347146 2  85              Rx   d 8 00 00 00 00 FF FF F7 69
   0.347357 1  19E             Rx   d 8 00 EC 0F FC FF 0C 00 A4
   0.350381 2  D8              Rx   d 8 00 80 00 FF F7 7F 09 73
   0.350505 1  A8              Rx   d 8 F2 49 01 00 00 00 00 00
   0.350619 2  E3              Rx   d 8 00 80 10 00 FB 7F 09 31
   0.350750 1  A9              Rx   d 8 30 09 00 00 7D 00 00 00
   0.350855 2  165             Rx   d 8 00 00 00 E0 0F 20 E9 55
   0.350988 1  AA              Rx   d 8 B5 99 01 0D 40 1F 04 00
   0.351176 1  130             Rx   d 5 05 00 00 40 69
   0.354313 2  C9              Rx   d 8 00 00 60 FF F7 00 00 00
   0.357144 2  85              Rx   d 8 00 00 00 00 FF FF F8 D2
   0.357179 1  1A0             Rx   d 8 00 80 00 00 80 00 98 3B
   0.357431 1  CE              Rx   d 8 00 00 00 00 00 00 00 00
   0.357679 1  2B2             Rx   d 8 00 00 00 00 00 80 E7 FF
   0.360310 2  D8              Rx   d 8 01 80 00 FF FA 7F 0A 8C
   0.360437 1  A8              Rx   d 8 F3 4A 01 00 00 00 00 00
   0.360547 2  E3              Rx   d 8 00 80 10 00 F1 7F 0A 19
   0.360684 1  A9              Rx   d 8 31 0A 00 00 7D 00 00 00
   0.360783 2  165             Rx   d 8 00 00 00 E0 0F 20 EA 72
   0.360920 1  AA              Rx   d 8 B6 9A 01 0D 40 1F 04 00
   0.364380 2  C9              Rx   d 8 01 00 70 FF EF 00 00 00
   0.367115 1  B6              Rx   d 5 09 09 80 00 C8
   0.367144 2  85              Rx   d 8 00 00 00 00 FF FF F9 CF
   0.367355 1  19E             Rx   d 8 00 EC 0F FC FF 0C 00 A4
   0.370331 2  D8              Rx   d 8 00 80 00 FF F8 7F 0B CF
   0.370458 1  A8              Rx   d 8 F4 4B 01 00 00 00 00 00
   0.370567 2  E3              Rx   d 8 00 80 10 00 EF 7F 0B 15
   0.370702 1  A9              Rx   d 8 32 0B 00 00 7D 00 00 00
   0.370805 2  165             Rx   d 8 00 00 00 E0 0F 20 EB 6F
   0.370936 1  AA              Rx   d 8 B7 9B 01 0D 40 1F 04 00
   0.374291 2  C9              Rx   d 8 00 00 80 FF E7 00 00 00
   0.377122 2  85              Rx   d 8 00 00 00 00 FF FF FA E8
   0.377155 1  1A6             Rx   d 8 00 00 00 00 00 00 B0 F2
   0.377407 1  CE              Rx   d 8 00 00 00 00 00 00 00 00
   0.377649 1  1A0             Rx   d 8 00 80 00 00 80 00 A8 4B
   0.377898 1  2B2             Rx   d 8 00 00 00 00 00 80 E7 FF
   0.380340 2  D8              Rx   d 8 FF 7F 00 FF F5 7F 0C E5
   0.380470 1  A8              Rx   d 8 F5 4C 01 00 00 00 00 00
   0.380576 2  E3              Rx   d 8 00 80 10 00 EA 7F 0C CF
   0.380712 1  A9              Rx   d 8 33 0C 00 00 7D 00 00 00
   0.380815 2  165             Rx   d 8 00 00 00 E0 0F 20 EC 3C
   0.380946 1  AA              Rx   d 8 B8 9C 01 0D 40 1F 04 00
   0.384313 2  C9              Rx   d 8 FF FF 90 00 10 00 00 00
   0.387111 1  B6              Rx   d 5 0A 0A 80 00 C8
   0.387143 2  85              Rx   d 8 00 00 00 00 FF FF FB F5
   0.387349 1  19E             Rx   d 8 00 EC 1F FC FF 0C 00 B4
   0.387529 1  2B3             Rx   d 5 F2 F4 7F 00 C8
   0.390310 2  D8              Rx   d 8 FE 7F 00 FF F4 7F 0D 2A
   0.390442 1  A8              Rx   d 8 F6 4D 01 00 00 00 00 00
   0.390546 2  E3              Rx   d 8 00 80 10 00 E5 7F 0D 54
   0.390686 1  A9              Rx   d 8 34 0D 00 00 7D 00 00 00
   0.390783 2  165             Rx   d 8 00 00 00 E0 0F 20 ED 21
   0.390923 1  AA              Rx   d 8 B9 9D 01 0D 40 1F 04 00
   0.394283 2  C9              Rx   d 8 FF FF A0 00 08 00 00 00
   0.397123 2  85              Rx   d 8 00 00 00 00 FF FF FC A6
   0.397157 1  1A0             Rx   d 8 00 80 00 00 80 00 B8 5B
   0.397409 1  CE              Rx   d 8 00 00 00 00 00 00 00 00
   0.397658 1  2B2             Rx   d 8 00 00 00 00 00 80 E7 FF
   0.400291 2  D8              Rx   d 8 00 80 00 FF F7 7F 0E 20
   0.400416 1  A8              Rx   d 8 F7 4E 01 00 00 00 00 00
   0.400532 2  E3              Rx   d 8 00 80 10 00 03 80 0E A7
   0.400658 1  A9              Rx   d 8 35 0E 00 00 7D 00 00 00
   0.400770 2  165             Rx   d 8 00 00 00 E0 0F 20 EE 06
   0.400894 1  AA              Rx   d 8 BA 9E 01 0D 40 1F 04 00
   0.404362 2  C9              Rx   d 8 00 00 B0 FF E7 00 00 00
   0.407111 1  B6              Rx   d 5 0B 0B 80 00 C8
   0.407143 2  85              Rx   d 8 00 00 00 00 FF FF FD BB
   0.407349 1  19E             Rx   d 8 00 EC 1F FC FF 0C 00 B4
   0.410323 2  D8              Rx   d 8 FF 7F 00 FF F5 7F 00 79
   0.410453 1  A8              Rx   d 8 E9 40 01 00 00 00 00 00
   0.410565 2  E3              Rx   d 8 00 80 10 00 FD 7F 00 C1
   0.410698 1  A9              Rx   d 8 27 00 00 00 7D 00 00 00
   0.410805 2  165             Rx   d 8 00 00 00 E0 0F 20 E0 A0
   0.410936 1  AA              Rx   d 8 AC 90 01 0D 40 1F 04 00
   0.414292 2  C9              Rx   d 8 FF FF C0 00 10 00 00 00
   0.417120 2  85              Rx   d 8 00 00 00 00 FF FF FE 9C
   0.417154 1  1A0             Rx   d 8 00 80 00 00 80 00 C8 6B
   0.417407 1  CE              Rx   d 8 00 00 00 00 00 00 00 00
   0.417655 1  2B2             Rx   d 8 00 00 00 00 00 80 E7 FF
   0.420297 2  D8              Rx   d 8 FF 7F 00 FF F5 7F 01 64
   0.420425 1  A8              Rx   d 8 EA 41 01 00 00 00 00 00
   0.420541 2  E3              Rx   d 8 00 80 10 00 FC 7F 01 53
   0.420672 1  A9              Rx   d 8 28 01 00 00 7D 00 00 00
   0.420778 2  165             Rx   d 8 00 00 00 E0 0F 20 E1 BD
   0.420906 1  AA              Rx   d 8 AD 91 01 0D 40 1F 04 00
   0.424374 2  C9              Rx   d 8 00 00 D0 FF EF 00 00 00
   0.427138 1  B6              Rx   d 5 0C 0C 80 00 C8
   0.427164 2  85              Rx   d 8 00 00 00 00 FF FF F0 3A
   0.427376 1  19E             Rx   d 8 00 EC 1F FC FF 0C 00 B4
   0.430339 2  D8              Rx   d 8 00 80 00 FF F7 7F 02 BC
   0.430465 1  A8              Rx   d 8 EB 42 01 00 00 00 00 00
   0.430579 2  E3              Rx   d 8 00 80 10 00 F2 7F 02 7D
   0.430709 1  A9              Rx   d 8 29 02 00 00 7D 00 00 00
   0.430815 2  165             Rx   d 8 00 00 00 E0 0F 20 E2 9A
   0.430943 1  AA              Rx   d 8 AE 92 01 0D 40 1F 04 00
   0.434301 2  C9              Rx   d 8 00 00 E0 FF E7 00 00 00
   0.437126 2  85              Rx   d 8 00 00 00 00 FF FF F1 27
   0.437160 1  1A0             Rx   d 8 00 80 00 00 80 00 D8 7B
   0.437412 1  CE              Rx   d 8 00 00 00 00 00 00 00 00
   0.437660 1  2B2             Rx   d 8 00 00 00 00 00 80 E7 FF
   0.437844 1  2B3             Rx   d 5 F3 F5 7F 00 C8
   0.440358 2  D8              Rx   d 8 01 80 00 FF FA 7F 03 79
   0.440483 1  A8              Rx   d 8 EC 43 01 00 00 00 00 00
   0.440600 2  E3              Rx   d 8 00 80 10 00 07 80 03 20
   0.440725 1  A9              Rx   d 8 2A 03 00 00 7D 00 00 00
   0.440836 2  165             Rx   d 8 00 00 00 E0 0F 20 E3 87
   0.440963 1  AA              Rx   d 8 AF 93 01 0D 40 1F 04 00
   0.444321 2  C9              Rx   d 8 01 00 00 FF F7 00 00 00
   0.447118 1  B6              Rx   d 5 0D 0D 80 00 C8
   0.447151 2  85              Rx   d 8 00 00 00 00 FF FF F2 00
   0.447356 1  19E             Rx   d 8 00 EC 1F FC FF 0C 00 B4
   0.447604 1  4A9             Rx   d 8 29 01 FF FF FF FF FF FF
   0.450312 2  D8              Rx   d 8 FF 7F 00 FF F5 7F 04 0D
   0.450441 1  A8              Rx   d 8 ED 44 01 00 00 00 00 00
   0.450552 2  E3              Rx   d 8 00 80 10 00 FE 7F 04 39
   0.450685 1  A9              Rx   d 8 2B 04 00 00 7D 00 00 00
   0.450791 2  165             Rx   d 8 00 00 00 E0 0F 20 E4 D4
   0.450920 1  AA              Rx   d 8 B0 94 01 0D 40 1F 04 00
   0.451108 1  130             Rx   d 5 05 00 00 40 8A
   0.454359 2  C9              Rx   d 8 FF FF 10 00 08 00 00 00
   0.457148 2  85              Rx   d 8 00 00 00 00 FF FF F3 1D
   0.457181 1  1A0             Rx   d 8 00 80 00 00 80 00 E8 8B
   0.457433 1  CE              Rx   d 8 00 00 00 00 00 00 00 00
   0.457681 1  2B2             Rx   d 8 00 00 00 00 00 80 E7 FF
   0.460358 2  D8              Rx   d 8 00 80 00 FF F7 7F 05 EF
   0.460477 1  A8              Rx   d 8 EE 45 01 00 00 00 00 00
   0.460600 2  E3              Rx   d 8 00 80 10 00 F8 7F 05 21
   0.460720 1  A9              Rx   d 8 2C 05 00 00 7D 00 00 00
   0.460838 2  165             Rx   d 8 00 00 00 E0 0F 20 E5 C9
   0.460956 1  AA              Rx   d 8 B1 95 01 0D 40 1F 04 00
   0.464315 2  C9              Rx   d 8 00 00 20 FF E7 00 00 00
   0.467116 1  B6              Rx   d 5 0E 0E 80 00 C8
   0.467145 2  85              Rx   d 8 00 00 00 00 FF FF F4 4E
   0.467354 1  19E             Rx   d 8 00 EC 1F FC FF 0C 00 B4
   0.470375 2  D8              Rx   d 8 FE 7F 00 FF F4 7F 06 E5
   0.470499 1  A8              Rx   d 8 EF 46 01 00 00 00 00 00
   0.470614 2  E3              Rx   d 8 00 80 10 00 EF 7F 06 94
   0.470741 1  A9              Rx   d 8 2D 06 00 00 7D 00 00 00
   0.470850 2  165             Rx   d 8 00 00 00 E0 0F 20 E6 EE
   0.470975 1  AA              Rx   d 8 B2 96 01 0D 40 1F 04 00
   0.474336 2  C9              Rx   d 8 FF FF 30 00 10 00 00 00
   0.477131 2  85              Rx   d 8 00 00 00 00 FF FF F5 53
   0.477164 1  1A6             Rx   d 8 00 00 00 00 00 00 40 F4
   0.477416 1  CE              Rx   d 8 00 00 00 00 00 00 00 00
   0.477658 1  1A0             Rx   d 8 00 80 00 00 80 00 08 AA
   0.477906 1  2B2             Rx   d 8 00 00 00 00 00 80 E7 FF
   0.480273 2  D8              Rx   d 8 FF 7F 00 FF F5 7F 07 2A
   0.480401 1  A8              Rx   d 8 F0 47 01 00 00 00 00 00
   0.480515 2  E3              Rx   d 8 00 80 10 00 F1 7F 07 98
   0.480645 1  A9              Rx   d 8 2E 07 00 00 7D 00 00 00
   0.480754 2  165             Rx   d 8 00 00 00 E0 0F 20 E7 F3
   0.480880 1  AA              Rx   d 8 B3 97 01 0D 40 1F 04 00
   0.484357 2  C9              Rx   d 8 FF FF 40 00 08 00 00 00
   0.487125 1  B6              Rx   d 5 FF 00 80 00 C8
   0.487153 2  85              Rx   d 8 00 00 00 00 FF FF F6 74
   0.487363 1  19E             Rx   d 8 00 EC 1F FC FF 0C 00 B4
   0.487543 1  2B3             Rx   d 5 F4 F6 7F 00 C8
   0.490361 2  D8              Rx   d 8 03 80 00 FF FE 7F 08 0A
   0.490487 1  A8              Rx   d 8 F1 48 01 00 00 00 00 00
   0.490598 2  E3              Rx   d 8 00 80 10 00 EE 7F 08 BD
   0.490732 1  A9              Rx   d 8 2F 08 00 00 7D 00 00 00
   0.490834 2  165             Rx   d 8 00 00 00 E0 0F 20 E8 48
   0.490972 1  AA              Rx   d 8 B4 98 01 0D 40 1F 04 00
   0.494322 2  C9              Rx   d 8 02 00 50 FF E7 00 00 00
   0.497134 2  85              Rx   d 8 00 00 00 00 FF FF F7 69
   0.497166 1  1A0             Rx   d 8 00 80 00 00 80 00 18 BA
   0.497419 1  CE              Rx   d 8 00 00 00 00 00 00 00 00
   0.497667 1  2B2             Rx   d 8 00 00 00 00 00 80 E7 FF
   0.500335 2  D8              Rx   d 8 00 80 00 FF F6 7F 09 FC
   0.500459 1  A8              Rx   d 8 F2 49 01 00 00 00 00 00
   0.500573 2  E3              Rx   d 8 00 80 10 00 F0 7F 09 B1
   0.500703 1  A9              Rx   d 8 30 09 00 00 7D 00 00 00
   0.500809 2  165             Rx   d 8 00 00 00 E0 0F 20 E9 55
   0.500942 1  AA              Rx   d 8 B5 99 01 0D 40 1F 04 00
   0.504300 2  C9              Rx   d 8 00 00 60 FF F7 00 00 00
   0.507128 1  B6              Rx   d 5 00 01 80 00 C8
   0.507150 2  85              Rx   d 8 00 00 00 00 FF FF F8 D2
   0.507366 1  19E             Rx   d 8 00 EC 1F FC FF 0C 00 B4
   0.510368 2  D8              Rx   d 8 02 80 00 FF FC 7F 0A 6E
   0.510497 1  A8              Rx   d 8 F3 4A 01 00 00 00 00 00
   0.510605 2  E3              Rx   d 8 00 80 10 00 F4 7F 0A 90
   0.510743 1  A9              Rx   d 8 31 0A 00 00 7D 00 00 00
   0.510841 2  165             Rx   d 8 00 00 00 E0 0F 20 EA 72
   0.510980 1  AA              Rx   d 8 B6 9A 01 0D 40 1F 04 00
   0.511192 1  3B0             Rx   d 2 01 00
   0.514293 2  C9              Rx   d 8 01 00 70 FF EF 00 00 00
   0.517159 2  85              Rx   d 8 00 00 00 00 FF FF F9 CF
   0.517194 1  1A0             Rx   d 8 00 80 00 00 80 00 28 CA
   0.517446 1  CE              Rx   d 8 00 00 00 00 00 00 00 00
   0.517694 1  2B2             Rx   d 8 00 00 00 00 00 80 E7 FF
   0.520307 2  D8              Rx   d 8 02 80 00 FF FA 7F 0B 76
   0.520433 1  A8              Rx   d 8 F4 4B 01 00 00 00 00 00
   0.520550 2  E3              Rx   d 8 00 80 10 00 FC 7F 0B 81
   0.520677 1  A9              Rx   d 8 32 0B 00 00 7D 00 00 00
   0.520788 2  165             Rx   d 8 00 00 00 E0 0F 20 EB 6F
   0.520911 1  AA              Rx   d 8 B7 9B 01 0D 40 1F 04 00
   0.524382 2  C9              Rx   d 8 01 00 80 FF E7 00 00 00
   0.527136 1  B6              Rx   d 5 02 02 80 00 C8
   0.527162 2  85              Rx   d 8 00 00 00 00 FF FF FA E8
   0.527374 1  19E             Rx   d 8 00 EC 1F FC FF 0C 00 B4
   0.530338 2  D8              Rx   d 8 02 80 00 FF FA 7F 0C 25
   0.530466 1  A8              Rx   d 8 F5 4C 01 00 00 00 00 00
   0.530577 2  E3              Rx   d 8 00 80 10 00 FF 7F 0C 5E
   0.530708 1  A9              Rx   d 8 33 0C 00 00 7D 00 00 00
   0.530815 2  165             Rx   d 8 00 00 00 E0 0F 20 EC 3C
   0.530943 1  AA              Rx   d 8 B8 9C 01 0D 40 1F 04 00
   0.534303 2  C9              Rx   d 8 01 00 90 FF F7 00 00 00
   0.537137 2  85              Rx   d 8 00 00 00 00 FF FF FB F5
   0.537167 1  1A0             Rx   d 8 00 80 00 00 80 00 38 DA
   0.537419 1  CE              Rx   d 8 00 00 00 00 00 00 00 00
   0.537667 1  2B2             Rx   d 8 00 00 00 00 00 80 E7 FF
   0.537851 1  2B3             Rx   d 5 F5 F7 7F 00 C8
   0.540365 2  D8              Rx   d 8 01 80 00 FF F9 7F 0D 53
   0.540487 1  A8              Rx   d 8 F6 4D 01 00 00 00 00 00
   0.540604 2  E3              Rx   d 8 00 80 10 00 F9 7F 0D 46
   0.540732 1  A9              Rx   d 8 34 0D 00 00 7D 00 00 00
   0.540840 2  165             Rx   d 8 00 00 00 E0 0F 20 ED 21
   0.540968 1  AA              Rx   d 8 B9 9D 01 0D 40 1F 04 00
   0.544328 2  C9              Rx   d 8 00 00 A0 FF EF 00 00 00
   0.544579 2  AA              Rx   d 8 00 00 00 00 00 00 00 00
   0.547124 1  B6              Rx   d 5 03 03 80 00 C8
   0.547151 2  85              Rx   d 8 00 00 00 00 FF FF FC A6
   0.547363 1  19E             Rx   d 8 00 EC 1F FC FF 0C 00 B4
   0.547611 1  4A9             Rx   d 8 29 02 FF FF FF FF FF FF
   0.550283 2  D8              Rx   d 8 FE 7F 00 FF F3 7F 0E 87
   0.550409 1  A8              Rx   d 8 F7 4E 01 00 00 00 00 00
   0.550521 2  E3              Rx   d 8 00 80 10 00 FC 7F 0E E8
   0.550651 1  A9              Rx   d 8 35 0E 00 00 7D 00 00 00
   0.550759 2  165             Rx   d 8 00 00 00 E0 0F 20 EE 06
   0.550887 1  AA              Rx   d 8 BA 9E 01 0D 40 1F 04 00
   0.551076 1  130             Rx   d 5 05 00 00 40 9B
   0.554332 2  C9              Rx   d 8 FF FF B0 00 00 00 00 00
   0.557150 2  85              Rx   d 8 00 00 00 00 FF FF FD BB
   0.557182 1  1A0             Rx   d 8 00 80 00 00 80 00 48 EA
   0.557434 1  CE              Rx   d 8 00 00 00 00 00 00 00 00
   0.557682 1  2B2             Rx   d 8 00 00 00 00 00 80 E7 FF
   0.560326 2  D8              Rx   d 8 01 80 00 FF FA 7F 00 5E
   0.560454 1  A8              Rx   d 8 E9 40 01 00 00 00 00 00
   0.560566 2  E3              Rx   d 8 00 80 10 00 FF 7F 00 C2
   0.560698 1  A9              Rx   d 8 27 00 00 00 7D 00 00 00
   0.560806 2  165             Rx   d 8 00 00 00 E0 0F 20 E0 A0
   0.560937 1  AA              Rx   d 8 AC 90 01 0D 40 1F 04 00
   0.564288 2  C9              Rx   d 8 01 00 C0 FF F7 00 00 00
   0.567123 1  B6              Rx   d 5 04 04 80 00 C8
   0.567145 2  85              Rx   d 8 00 00 00 00 FF FF FE 9C
   0.567361 1  19E             Rx   d 8 00 EC 1F FC FF 0C 00 B4
   0.570349 2  D8              Rx   d 8 00 80 00 FF F7 7F 01 9B
   0.570471 1  A8              Rx   d 8 EA 41 01 00 00 00 00 00
   0.570593 2  E3              Rx   d 8 00 80 10 00 FC 7F 01 53
   0.570718 1  A9              Rx   d 8 28 01 00 00 7D 00 00 00
   0.570830 2  165             Rx   d 8 00 00 00 E0 0F 20 E1 BD
   0.570952 1  AA              Rx   d 8 AD 91 01 0D 40 1F 04 00
   0.574302 2  C9              Rx   d 8 00 00 D0 FF EF 00 00 00
   0.577130 2  85              Rx   d 8 00 00 00 00 FF FF F0 3A
   0.577160 1  1A6             Rx   d 8 00 00 00 00 00 00 D0 F5
   0.577412 1  CE              Rx   d 8 00 00 00 00 00 00 00 00
   0.577656 1  1A0             Rx   d 8 00 80 00 00 80 00 58 FA
   0.577904 1  2B2             Rx   d 8 00 00 00 00 00 80 E7 FF
   0.580362 2  D8              Rx   d 8 01 80 00 FF FA 7F 02 64
   0.580489 1  A8              Rx   d 8 EB 42 01 00 00 00 00 00
   0.580605 2  E3              Rx   d 8 00 80 10 00 FD 7F 02 FB
   0.580733 1  A9              Rx   d 8 29 02 00 00 7D 00 00 00
   0.580841 2  165             Rx   d 8 00 00 00 E0 0F 20 E2 9A
   0.580968 1  AA              Rx   d 8 AE 92 01 0D 40 1F 04 00
   0.584323 2  C9              Rx   d 8 01 00 E0 FF E7 00 00 00
   0.587120 1  B6              Rx   d 5 05 05 80 00 C8
   0.587143 2  85              Rx   d 8 00 00 00 00 FF FE F1 6B
   0.587356 1  19E             Rx   d 8 00 EC 2F FC FF 0C 00 C4
   0.587540 1  2B3             Rx   d 5 07 08 80 00 C8
   0.590333 2  D8              Rx   d 8 01 80 00 FF F9 7F 03 F5
   0.590458 1  A8              Rx   d 8 EC 43 01 00 00 00 00 00
   0.590573 2  E3              Rx   d 8 00 80 10 00 F0 7F 03 63
   0.590701 1  A9              Rx   d 8 2A 03 00 00 7D 00 00 00
   0.590810 2  165             Rx   d 8 00 00 00 E0 0F 20 E3 87
   0.590939 1  AA              Rx   d 8 AF 93 01 0D 40 1F 04 00
   0.594298 2  C9              Rx   d 8 01 00 00 FF F7 00 00 00
   0.597128 2  85              Rx   d 8 00 00 00 00 FF FE F2 4C
   0.597165 1  1A0             Rx   d 8 00 80 00 00 80 00 68 0B
   0.597417 1  CE              Rx   d 8 00 00 00 00 00 00 00 00
   0.597666 1  2B2             Rx   d 8 00 00 00 00 00 80 E7 FF
   0.600304 2  D8              Rx   d 8 FF 7F 00 FF F5 7F 04 0D
   0.600430 1  A8              Rx   d 8 ED 44 01 00 00 00 00 00
   0.600543 2  E3              Rx   d 8 00 80 10 00 F6 7F 04 35
   0.600674 1  A9              Rx   d 8 2B 04 00 00 7D 00 00 00
   0.600781 2  165             Rx   d 8 00 00 00 A0 07 77 E4 EB
   0.600909 1  AA              Rx   d 8 B0 94 01 0D 40 1F 04 00
   0.604273 2  C9              Rx   d 8 FF FF 10 00 08 00 00 00
   0.607117 1  B6              Rx   d 5 06 06 80 00 C8
   0.607143 2  85              Rx   d 8 00 00 00 00 FF FE F3 51
   0.607353 1  19E             Rx   d 8 00 EC 2F FC FF 0C 00 C4
   0.610338 2  D8              Rx   d 8 FF 7F 00 FF F5 7F 05 10
   0.610461 1  A8              Rx   d 8 EE 45 01 00 00 00 00 00
   0.610580 2  E3              Rx   d 8 00 80 10 00 FF 7F 05 AB
   0.610704 1  A9              Rx   d 8 2C 05 00 00 7D 00 00 00
   0.610821 2  165             Rx   d 8 00 00 00 A0 07 77 E5 F6
   0.610940 1  AA              Rx   d 8 B1 95 01 0D 40 1F 04 00
   0.614307 2  C9              Rx   d 8 FF FF 20 00 00 00 00 00
   0.617131 2  85              Rx   d 8 00 00 00 00 FF FF F4 4E
   0.617164 1  1A0             Rx   d 8 00 80 00 00 80 00 78 1B
   0.617416 1  CE              Rx   d 8 00 00 00 00 00 00 00 00
   0.617664 1  2B2             Rx   d 8 00 00 00 00 00 80 E7 FF
   0.620309 2  D8              Rx   d 8 FE 7F 00 FF F4 7F 06 E5
   0.620436 1  A8              Rx   d 8 EF 46 01 00 00 00 00 00
   0.620553 2  E3              Rx   d 8 00 80 10 00 FE 7F 06 03
   0.620679 1  A9              Rx   d 8 2D 06 00 00 7D 00 00 00
   0.620794 2  165             Rx   d 8 00 00 00 A0 07 77 E6 D1
   0.620913 1  AA              Rx   d 8 B2 96 01 0D 40 1F 04 00
   0.624280 2  C9              Rx   d 8 FF FF 30 00 10 00 00 00
   0.627137 1  B6              Rx   d 5 07 07 80 00 C8
   0.627162 2  85              Rx   d 8 00 00 00 00 FF FF F5 53
   0.627373 1  19E             Rx   d 8 00 EC 2F FC FF 0C 00 C4
   0.630348 2  D8              Rx   d 8 FF 7F 00 FF F5 7F 07 2A
   0.630471 1  A8              Rx   d 8 F0 47 01 00 00 00 00 00
   0.630592 2  E3              Rx   d 8 00 80 10 00 F8 7F 07 1B
   0.630716 1  A9              Rx   d 8 2E 07 00 00 7D 00 00 00
   0.630831 2  165             Rx   d 8 00 00 00 E0 0F 20 E7 F3
   0.630950 1  AA              Rx   d 8 B3 97 01 0D 40 1F 04 00
   0.634313 2  C9              Rx   d 8 FF FF 40 00 08 00 00 00
   0.637129 2  85              Rx   d 8 00 00 00 00 FF FF F6 74
   0.637160 1  1A0             Rx   d 8 00 80 00 00 80 00 88 2B
   0.637412 1  CE              Rx   d 8 00 00 00 00 00 00 00 00
   0.637660 1  2B2             Rx   d 8 00 00 00 00 00 80 E7 FF
   0.637845 1  2B3             Rx   d 5 08 09 80 00 C8
   0.640363 2  D8              Rx   d 8 FF 7F 00 FF F5 7F 08 91
   0.640497 1  A8              Rx   d 8 F1 48 01 00 00 00 00 00
   0.640606 2  E3              Rx   d 8 00 80 10 00 FB 7F 08 2C
   0.640742 1  A9              Rx   d 8 2F 08 00 00 7D 00 00 00
   0.640842 2  165             Rx   d 8 00 00 00 E0 0F 20 E8 48
   0.640982 1  AA              Rx   d 8 B4 98 01 0D 40 1F 04 00
   0.644300 1  308             Rx   d 3 41 02 00
   0.644336 2  C9              Rx   d 8 00 00 50 FF E7 00 00 00
   0.647140 1  B6              Rx   d 5 08 08 80 00 C8
   0.647168 2  85              Rx   d 8 00 00 00 00 FF FF F7 69
   0.647377 1  19E             Rx   d 8 00 EC 2F FC FF 0C 00 C4
   0.650365 2  D8              Rx   d 8 FF 7F 00 FF F6 7F 09 00
   0.650493 1  A8              Rx   d 8 F2 49 01 00 00 00 00 00
   0.650601 2  E3              Rx   d 8 00 80 10 00 EC 7F 09 A3
   0.650737 1  A9              Rx   d 8 30 09 00 00 7D 00 00 00
   0.650837 2  165             Rx   d 8 00 00 00 E0 0F 20 E9 55
   0.650975 1  AA              Rx   d 8 B5 99 01 0D 40 1F 04 00
   0.651161 1  130             Rx   d 5 05 00 00 40 AC
   0.654299 2  C9              Rx   d 8 00 00 60 FF F7 00 00 00
   0.657153 2  85              Rx   d 8 00 00 00 00 FF FF F8 D2
   0.657187 1  1A0             Rx   d 8 00 80 00 00 80 00 98 3B
   0.657440 1  CE              Rx   d 8 00 00 00 00 00 00 00 00
   0.657688 1  2B2             Rx   d 8 00 00 00 00 00 80 E7 FF
   0.660295 2  D8              Rx   d 8 03 80 00 FF FC 7F 0A 33
   0.660422 1  A8              Rx   d 8 F3 4A 01 00 00 00 00 00
   0.660532 2  E3              Rx   d 8 00 80 10 00 F4 7F 0A 90
   0.660668 1  A9              Rx   d 8 31 0A 00 00 7D 00 00 00
   0.660768 2  165             Rx   d 8 00 00 00 E0 0F 20 EA 72
   0.660905 1  AA              Rx   d 8 B6 9A 01 0D 40 1F 04 00
   0.664368 2  C9              Rx   d 8 01 00 70 FF EF 00 00 00
   0.667117 1  B6              Rx   d 5 09 09 80 00 C8
   0.667144 2  85              Rx   d 8 00 00 00 00 FF FF F9 CF
   0.667353 1  19E             Rx   d 8 00 EC 2F FC FF 0C 00 C4
   0.670315 2  D8              Rx   d 8 01 80 00 FF F9 7F 0B 1D
   0.670443 1  A8              Rx   d 8 F4 4B 01 00 00 00 00 00
   0.670557 2  E3              Rx   d 8 00 80 10 00 FC 7F 0B 81
   0.670688 1  A9              Rx   d 8 32 0B 00 00 7D 00 00 00
   0.670796 2  165             Rx   d 8 00 00 00 E0 0F 20 EB 6F
   0.670922 1  AA              Rx   d 8 B7 9B 01 0D 40 1F 04 00
   0.674278 2  C9              Rx   d 8 00 00 80 FF E7 00 00 00
   0.677128 2  85              Rx   d 8 00 00 00 00 FF FF FA E8
   0.677164 1  1A6             Rx   d 8 00 00 00 00 00 00 60 F7
   0.677416 1  CE              Rx   d 8 00 00 00 00 00 00 00 00
   0.677659 1  1A0             Rx   d 8 00 80 00 00 80 00 A8 4B
   0.677907 1  2B2             Rx   d 8 00 00 00 00 00 80 E7 FF
   0.680328 2  D8              Rx   d 8 FE 7F 00 FF F4 7F 0C 37
   0.680455 1  A8              Rx   d 8 F5 4C 01 00 00 00 00 00
   0.680566 2  E3              Rx   d 8 00 80 10 00 F9 7F 0C 5B
   0.680698 1  A9              Rx   d 8 33 0C 00 00 7D 00 00 00
   0.680805 2  165             Rx   d 8 00 00 00 E0 0F 20 EC 3C
   0.680932 1  AA              Rx   d 8 B8 9C 01 0D 40 1F 04 00
   0.684299 2  C9              Rx   d 8 FF FF 90 00 10 00 00 00
   0.687118 1  B6              Rx   d 5 0A 0A 80 00 C8
   0.687151 2  85              Rx   d 8 00 00 00 00 FF FF FB F5
   0.687355 1  19E             Rx   d 8 00 EC 2F FC FF 0C 00 C4
   0.687541 1  2B3             Rx   d 5 F8 FA 7F 00 C8
   0.690297 2  D8              Rx   d 8 FF 7F 00 FF F4 7F 0D 77
   0.690425 1  A8              Rx   d 8 F6 4D 01 00 00 00 00 00
   0.690535 2  E3              Rx   d 8 00 80 10 00 F4 7F 0D C3
   0.690669 1  A9              Rx   d 8 34 0D 00 00 7D 00 00 00
   0.690771 2  165             Rx   d 8 00 00 00 E0 0F 20 ED 21
   0.690905 1  AA              Rx   d 8 B9 9D 01 0D 40 1F 04 00
   0.694267 2  C9              Rx   d 8 FF FF A0 00 08 00 00 00
   0.697130 2  85              Rx   d 8 00 00 00 00 FF FF FC A6
   0.697164 1  1A0             Rx   d 8 00 80 00 00 80 00 B8 5B
   0.697416 1  CE              Rx   d 8 00 00 00 00 00 00 00 00
   0.697664 1  2B2             Rx   d 8 00 00 00 00 00 80 E7 FF
   0.700274 2  D8              Rx   d 8 FE 7F 00 FF F3 7F 0E 87
   0.700402 1  A8              Rx   d 8 F7 4E 01 00 00 00 00 00
   0.700512 2  E3              Rx   d 8 00 80 10 00 F2 7F 0E E1
   0.700644 1  A9              Rx   d 8 35 0E 00 00 7D 00 00 00
   0.700750 2  165             Rx   d 8 00 00 00 E0 0F 20 EE 06
   0.700881 1  AA              Rx   d 8 BA 9E 01 0D 40 1F 04 00
   0.704358 2  C9              Rx   d 8 FF FF B0 00 00 00 00 00
   0.707117 1  B6              Rx   d 5 0B 0B 80 00 C8
   0.707146 2  85              Rx   d 8 00 00 00 00 FF FF FD BB
   0.707353 1  19E             Rx   d 8 00 EC 2F FC FF 0C 00 C4
   0.710313 2  D8              Rx   d 8 01 80 00 FF F9 7F 00 D2
   0.710437 1  A8              Rx   d 8 E9 40 01 00 00 00 00 00
   0.710551 2  E3              Rx   d 8 00 80 10 00 F4 7F 00 42
   0.710682 1  A9              Rx   d 8 27 00 00 00 7D 00 00 00
   0.710792 2  165             Rx   d 8 00 00 00 E0 0F 20 E0 A0
   0.710920 1  AA              Rx   d 8 AC 90 01 0D 40 1F 04 00
   0.714278 2  C9              Rx   d 8 01 00 C0 FF F7 00 00 00
   0.717128 2  85              Rx   d 8 00 00 00 00 FF FF FE 9C
   0.717162 1  1A0             Rx   d 8 00 80 00 00 80 00 C8 6B
   0.717414 1  CE              Rx   d 8 00 00 00 00 00 00 00 00
   0.717663 1  2B2             Rx   d 8 00 00 00 00 00 80 E7 FF
   0.720284 2  D8              Rx   d 8 00 80 00 FF F7 7F 01 9B
   0.720409 1  A8              Rx   d 8 EA 41 01 00 00 00 00 00
   0.720524 2  E3              Rx   d 8 00 80 10 00 F0 7F 01 59
   0.720655 1  A9              Rx   d 8 28 01 00 00 7D 00 00 00
   0.720761 2  165             Rx   d 8 00 00 00 E0 0F 20 E1 BD
   0.720890 1  AA              Rx   d 8 AD 91 01 0D 40 1F 04 00
   0.724357 2  C9              Rx   d 8 00 00 D0 FF EF 00 00 00
   0.727136 1  B6              Rx   d 5 0C 0C 80 00 C8
   0.727163 2  85              Rx   d 8 00 00 00 00 FF FF F0 3A
   0.727372 1  19E             Rx   d 8 00 EC 2F FC FF 0C 00 C4
   0.730319 2  D8              Rx   d 8 01 80 00 FF FA 7F 02 64
   0.730448 1  A8              Rx   d 8 EB 42 01 00 00 00 00 00
   0.730563 2  E3              Rx   d 8 00 80 10 00 00 80 02 B7
   0.730693 1  A9              Rx   d 8 29 02 00 00 7D 00 00 00
   0.730800 2  165             Rx   d 8 00 00 00 E0 0F 20 E2 9A
   0.730927 1  AA              Rx   d 8 AE 92 01 0D 40 1F 04 00
   0.734282 2  C9              Rx   d 8 01 00 E0 FF E7 00 00 00
   0.737116 2  85              Rx   d 8 00 00 00 00 FF FF F1 27
   0.737149 1  1A0             Rx   d 8 00 80 00 00 80 00 D8 7B
   0.737401 1  CE              Rx   d 8 00 00 00 00 00 00 00 00
   0.737649 1  2B2             Rx   d 8 00 00 00 00 00 80 E7 FF
   0.737834 1  2B3             Rx   d 5 F9 FB 7F 00 C8
   0.740340 2  D8              Rx   d 8 01 80 00 FF FA 7F 03 79
   0.740468 1  A8              Rx   d 8 EC 43 01 00 00 00 00 00
   0.740581 2  E3              Rx   d 8 00 80 10 00 EF 7F 03 FD
   0.740711 1  A9              Rx   d 8 2A 03 00 00 7D 00 00 00
   0.740817 2  165             Rx   d 8 00 00 00 E0 0F 20 E3 87
   0.740949 1  AA              Rx   d 8 AF 93 01 0D 40 1F 04 00
   0.744305 2  C9              Rx   d 8 01 00 00 FF F7 00 00 00
   0.744556 2  AA              Rx   d 8 00 00 00 00 00 00 00 00
   0.747119 1  B6              Rx   d 5 0D 0D 80 00 C8
   0.747154 2  85              Rx   d 8 00 00 00 00 FF FF F2 00
   0.747355 1  19E             Rx   d 8 00 EC 2F FC FF 0C 00 C4
   0.750348 2  D8              Rx   d 8 FF 7F 00 FF F6 7F 04 81
   0.750471 1  A8              Rx   d 8 ED 44 01 00 00 00 00 00
   0.750591 2  E3              Rx   d 8 00 80 10 00 FC 7F 04 3A
   0.750716 1  A9              Rx   d 8 2B 04 00 00 7D 00 00 00
   0.750829 2  165             Rx   d 8 00 00 00 E0 0F 20 E4 D4
   0.750950 1  AA              Rx   d 8 B0 94 01 0D 40 1F 04 00
   0.751139 1  130             Rx   d 5 05 00 00 40 BD
   0.754278 2  C9              Rx   d 8 00 00 10 FF EF 00 00 00
   0.757150 2  85              Rx   d 8 00 00 00 00 FF FF F3 1D
   0.757185 1  1A0             Rx   d 8 00 80 00 00 80 00 E8 8B
   0.757437 1  CE              Rx   d 8 00 00 00 00 00 00 00 00
   0.757686 1  2B2             Rx   d 8 00 00 00 00 00 80 E7 FF
   0.760274 2  D8              Rx   d 8 00 80 00 FF F8 7F 05 69
   0.760398 1  A8              Rx   d 8 EE 45 01 00 00 00 00 00
   0.760514 2  E3              Rx   d 8 00 80 10 00 FB 7F 05 AD
   0.760640 1  A9              Rx   d 8 2C 05 00 00 7D 00 00 00
   0.760752 2  165             Rx   d 8 00 00 00 E0 0F 20 E5 C9
   0.760876 1  AA              Rx   d 8 B1 95 01 0D 40 1F 04 00
   0.764344 2  C9              Rx   d 8 00 00 20 FF E7 00 00 00
   0.767120 1  B6              Rx   d 5 0E 0E 80 00 C8
   0.767151 2  85              Rx   d 8 00 00 00 00 FF FF F4 4E
   0.767357 1  19E             Rx   d 8 00 EC 2F FC FF 0C 00 C4
   0.770293 2  D8              Rx   d 8 FE 7F 00 FF F3 7F 06 6F
   0.770417 1  A8              Rx   d 8 EF 46 01 00 00 00 00 00
   0.770537 2  E3              Rx   d 8 00 80 10 00 FC 7F 06 00
   0.770659 1  A9              Rx   d 8 2D 06 00 00 7D 00 00 00
   0.770773 2  165             Rx   d 8 00 00 00 E0 0F 20 E6 EE
   0.770893 1  AA              Rx   d 8 B2 96 01 0D 40 1F 04 00
   0.774367 2  C9              Rx   d 8 FF FF 30 00 10 00 00 00
   0.777127 2  85              Rx   d 8 00 00 00 00 FF FF F5 53
   0.777165 1  1A6             Rx   d 8 00 00 00 00 00 00 F0 F8
   0.777417 1  CE              Rx   d 8 00 00 00 00 00 00 00 00
   0.777660 1  1A0             Rx   d 8 00 80 00 00 80 00 08 AA
   0.777908 1  2B2             Rx   d 8 00 00 00 00 00 80 E7 FF
   0.780312 2  D8              Rx   d 8 00 80 00 FF F7 7F 07 D5
   0.780430 1  A8              Rx   d 8 F0 47 01 00 00 00 00 00
   0.780552 2  E3              Rx   d 8 00 80 10 00 F5 7F 07 9E
   0.780675 1  A9              Rx   d 8 2E 07 00 00 7D 00 00 00
   0.780790 2  165             Rx   d 8 00 00 00 E0 0F 20 E7 F3
   0.780909 1  AA              Rx   d 8 B3 97 01 0D 40 1F 04 00
   0.784271 2  C9              Rx   d 8 00 00 40 FF EF 00 00 00
   0.787121 1  B6              Rx   d 5 FF 00 80 00 C8
   0.787149 2  85              Rx   d 8 00 00 00 00 FF FF F6 74
   0.787358 1  19E             Rx   d 8 00 EC 3F FC FF 0C 00 D4
   0.787540 1  2B3             Rx   d 5 FA FC 7F 00 C8
   0.790275 2  D8              Rx   d 8 00 80 00 FF F7 7F 08 6E
   0.790404 1  A8              Rx   d 8 F1 48 01 00 00 00 00 00
   0.790513 2  E3              Rx   d 8 00 80 10 00 F7 7F 08 26
   0.790648 1  A9              Rx   d 8 2F 08 00 00 7D 00 00 00
   0.790750 2  165             Rx   d 8 00 00 00 E0 0F 20 E8 48
   0.790888 1  AA              Rx   d 8 B4 98 01 0D 40 1F 04 00
   0.794356 2  C9              Rx   d 8 00 00 50 FF E7 00 00 00
   0.797126 2  85              Rx   d 8 00 00 00 00 FF FF F7 69
   0.797159 1  1A0             Rx   d 8 00 80 00 00 80 00 18 BA
   0.797411 1  CE              Rx   d 8 00 00 00 00 00 00 00 00
   0.797659 1  2B2             Rx   d 8 00 00 00 00 00 80 E7 FF
   0.800252 2  D8              Rx   d 8 01 80 00 FF F9 7F 09 27
   0.800375 1  A8              Rx   d 8 F2 49 01 00 00 00 00 00
   0.800492 2  E3              Rx   d 8 00 80 10 00 F4 7F 09 B7
   0.800619 1  A9              Rx   d 8 30 09 00 00 7D 00 00 00
   0.800728 2  165             Rx   d 8 00 00 00 E0 0F 20 E9 55
   0.800858 1  AA              Rx   d 8 B5 99 01 0D 40 1F 04 00
   0.804326 2  C9              Rx   d 8 01 00 60 FF F7 00 00 00
   0.807118 1  B6              Rx   d 5 00 01 80 00 C8
   0.807141 2  85              Rx   d 8 00 00 00 00 FF FF F8 D2
   0.807354 1  19E             Rx   d 8 00 EC 3F FC FF 0C 00 D4
   0.807602 1  4A9             Rx   d 8 29 01 FF FF FF FF FF FF
   0.810315 2  D8              Rx   d 8 00 80 00 FF F8 7F 0A D2
   0.810441 1  A8              Rx   d 8 F3 4A 01 00 00 00 00 00
   0.810556 2  E3              Rx   d 8 00 80 10 00 FE 7F 0A 9F
   0.810687 1  A9              Rx   d 8 31 0A 00 00 7D 00 00 00
   0.810792 2  165             Rx   d 8 00 00 00 E0 0F 20 EA 72
   0.810923 1  AA              Rx   d 8 B6 9A 01 0D 40 1F 04 00
   0.814280 2  C9              Rx   d 8 00 00 70 FF EF 00 00 00
   0.817124 2  85              Rx   d 8 00 00 00 00 FF FF F9 CF
   0.817143 1  5A9             Rx   d 8 30 06 00 E2 04 F1 19 01
   0.817395 1  CE              Rx   d 8 00 00 00 00 00 00 00 00
   0.817640 1  1A0             Rx   d 8 00 80 00 00 80 00 28 CA
   0.817888 1  2B2             Rx   d 8 00 00 00 00 00 80 E7 FF
   0.820336 2  D8              Rx   d 8 FF 7F 00 FF F5 7F 0B B6
   0.820466 1  A8              Rx   d 8 F4 4B 01 00 00 00 00 00
   0.820579 2  E3              Rx   d 8 00 80 10 00 FE 7F 0B 82
   0.820710 1  A9              Rx   d 8 32 0B 00 00 7D 00 00 00
   0.820817 2  165             Rx   d 8 00 00 00 E0 0F 20 EB 6F
   0.820945 1  AA              Rx   d 8 B7 9B 01 0D 40 1F 04 00
   0.824309 2  C9              Rx   d 8 FF FF 80 00 00 00 00 00
   0.827133 1  B6              Rx   d 5 02 02 80 00 C8
   0.827159 2  85              Rx   d 8 00 00 00 00 FF FF FA E8
   0.827369 1  19E             Rx   d 8 00 EC 3F FC FF 0C 00 D4
   0.830261 2  D8              Rx   d 8 01 80 00 FF FA 7F 0C C2
   0.830385 1  A8              Rx   d 8 F5 4C 01 00 00 00 00 00
   0.830506 2  E3              Rx   d 8 00 80 10 00 00 80 0C 11
   0.830627 1  A9              Rx   d 8 33 0C 00 00 7D 00 00 00
   0.830744 2  165             Rx   d 8 00 00 00 E0 0F 20 EC 3C
   0.830862 1  AA              Rx   d 8 B8 9C 01 0D 40 1F 04 00
   0.834336 2  C9              Rx   d 8 01 00 90 FF F7 00 00 00
   0.837126 2  85              Rx   d 8 00 00 00 00 FF FF FB F5
   0.837158 1  1A0             Rx   d 8 00 80 00 00 80 00 38 DA
   0.837410 1  CE              Rx   d 8 00 00 00 00 00 00 00 00
   0.837658 1  2B2             Rx   d 8 00 00 00 00 00 80 E7 FF
   0.837840 1  2B3             Rx   d 5 0C 0D 80 00 C8
   0.840276 2  D8              Rx   d 8 FF 7F 00 FF F6 7F 0D 74
   0.840409 1  A8              Rx   d 8 F6 4D 01 00 00 00 00 00
   0.840521 2  E3              Rx   d 8 00 80 10 00 FD 7F 0D 40
   0.840653 1  A9              Rx   d 8 34 0D 00 00 7D 00 00 00
   0.840757 2  165             Rx   d 8 00 00 00 E0 0F 20 ED 21
   0.840890 1  AA              Rx   d 8 B9 9D 01 0D 40 1F 04 00
   0.844362 2  C9              Rx   d 8 00 00 A0 FF EF 00 00 00
   0.847118 1  B6              Rx   d 5 03 03 80 00 C8
   0.847144 2  85              Rx   d 8 00 00 00 00 FF FF FC A6
   0.847354 1  19E             Rx   d 8 00 EC 3F FC FF 0C 00 D4
   0.850320 2  D8              Rx   d 8 00 80 00 FF F7 7F 0E 20
   0.850444 1  A8              Rx   d 8 F7 4E 01 00 00 00 00 00
   0.850560 2  E3              Rx   d 8 00 80 10 00 ED 7F 0E 7F
   0.850686 1  A9              Rx   d 8 35 0E 00 00 7D 00 00 00
   0.850798 2  165             Rx   d 8 00 00 00 E0 0F 20 EE 06
   0.850923 1  AA              Rx   d 8 BA 9E 01 0D 40 1F 04 00
   0.851109 1  130             Rx   d 5 05 00 00 40 CE
   0.854359 2  C9              Rx   d 8 00 00 B0 FF E7 00 00 00
   0.857145 2  85              Rx   d 8 00 00 00 00 FF FF FD BB
   0.857177 1  1A0             Rx   d 8 00 80 00 00 80 00 48 EA
   0.857429 1  CE              Rx   d 8 00 00 00 00 00 00 00 00
   0.857678 1  2B2             Rx   d 8 00 00 00 00 00 80 E7 FF
   0.860245 2  D8              Rx   d 8 00 80 00 FF F7 7F 00 86
   0.860373 1  A8              Rx   d 8 E9 40 01 00 00 00 00 00
   0.860485 2  E3              Rx   d 8 00 80 10 00 FA 7F 00 4B
   0.860618 1  A9              Rx   d 8 27 00 00 00 7D 00 00 00
   0.860725 2  165             Rx   d 8 00 00 00 E0 0F 20 E0 A0
   0.860856 1  AA              Rx   d 8 AC 90 01 0D 40 1F 04 00
   0.864316 2  C9              Rx   d 8 00 00 C0 FF F7 00 00 00
   0.867122 1  B6              Rx   d 5 04 04 80 00 C8
   0.867146 2  85              Rx   d 8 00 00 00 00 FF FF FE 9C
   0.867358 1  19E             Rx   d 8 00 EC 3F FC FF 0C 00 D4
   0.870270 2  D8              Rx   d 8 00 80 00 FF F7 7F 01 9B
   0.870393 1  A8              Rx   d 8 EA 41 01 00 00 00 00 00
   0.870508 2  E3              Rx   d 8 00 80 10 00 ED 7F 01 C4
   0.870639 1  A9              Rx   d 8 28 01 00 00 7D 00 00 00
   0.870745 2  165             Rx   d 8 00 00 00 E0 0F 20 E1 BD
   0.870873 1  AA              Rx   d 8 AD 91 01 0D 40 1F 04 00
   0.874337 2  C9              Rx   d 8 00 00 D0 FF EF 00 00 00
   0.877129 2  85              Rx   d 8 00 00 00 00 FF FF F0 3A
   0.877161 1  1A6             Rx   d 8 00 00 00 00 00 00 80 FA
   0.877413 1  CE              Rx   d 8 00 00 00 00 00 00 00 00
   0.877657 1  1A0             Rx   d 8 00 80 00 00 80 00 58 FA
   0.877906 1  2B2             Rx   d 8 00 00 00 00 00 80 E7 FF
   0.880277 2  D8              Rx   d 8 FF 7F 00 FF F5 7F 02 43
   0.880410 1  A8              Rx   d 8 EB 42 01 00 00 00 00 00
   0.880516 2  E3              Rx   d 8 00 80 10 00 F1 7F 02 F1
   0.880654 1  A9              Rx   d 8 29 02 00 00 7D 00 00 00
   0.880752 2  165             Rx   d 8 00 00 00 E0 0F 20 E2 9A
   0.880889 1  AA              Rx   d 8 AE 92 01 0D 40 1F 04 00
   0.884362 2  C9              Rx   d 8 FF FF E0 00 00 00 00 00
   0.887115 1  B6              Rx   d 5 05 05 80 00 C8
   0.887142 2  85              Rx   d 8 00 00 00 00 FF FF F1 27
   0.887351 1  19E             Rx   d 8 00 EC 3F FC FF 0C 00 D4
   0.887533 1  2B3             Rx   d 5 FC FE 7F 00 C8
   0.890250 2  D8              Rx   d 8 01 80 00 FF FA 7F 03 79
   0.890375 1  A8              Rx   d 8 EC 43 01 00 00 00 00 00
   0.890490 2  E3              Rx   d 8 00 80 10 00 F6 7F 03 66
   0.890618 1  A9              Rx   d 8 2A 03 00 00 7D 00 00 00
   0.890727 2  165             Rx   d 8 00 00 00 E0 0F 20 E3 87
   0.890856 1  AA              Rx   d 8 AF 93 01 0D 40 1F 04 00
   0.894331 2  C9              Rx   d 8 01 00 00 FF F7 00 00 00
   0.897125 2  85              Rx   d 8 00 00 00 00 FF FF F2 00
   0.897156 1  1A0             Rx   d 8 00 80 00 00 80 00 68 0B
   0.897408 1  CE              Rx   d 8 00 00 00 00 00 00 00 00
   0.897657 1  2B2             Rx   d 8 00 00 00 00 00 80 E7 FF
   0.900337 2  D8              Rx   d 8 01 80 00 FF F9 7F 04 A6
   0.900465 1  A8              Rx   d 8 ED 44 01 00 00 00 00 00
   0.900582 2  E3              Rx   d 8 00 80 10 00 05 80 04 70
   0.900709 1  A9              Rx   d 8 2B 04 00 00 7D 00 00 00
   0.900820 2  165             Rx   d 8 00 00 00 E0 0F 20 E4 D4
   0.900944 1  AA              Rx   d 8 B0 94 01 0D 40 1F 04 00
   0.904300 2  C9              Rx   d 8 01 00 10 FF EF 00 00 00
   0.907115 1  B6              Rx   d 5 06 06 80 00 C8
   0.907142 2  85              Rx   d 8 00 00 00 00 FF FF F3 1D
   0.907352 1  19E             Rx   d 8 00 EC 3F FC FF 0C 00 D4
   0.907600 1  4A9             Rx   d 8 29 02 FF FF FF FF FF FF
   0.910293 2  D8              Rx   d 8 00 80 00 FF F7 7F 05 EF
   0.910412 1  A8              Rx   d 8 EE 45 01 00 00 00 00 00
   0.910537 2  E3              Rx   d 8 00 80 10 00 0A 80 05 EB
   0.910655 1  A9              Rx   d 8 2C 05 00 00 7D 00 00 00
   0.910775 2  165             Rx   d 8 00 00 00 E0 0F 20 E5 C9
   0.910891 1  AA              Rx   d 8 B1 95 01 0D 40 1F 04 00
   0.914255 2  C9              Rx   d 8 00 00 20 FF E7 00 00 00
   0.917130 2  85              Rx   d 8 00 00 00 00 FF FF F4 4E
   0.917161 1  1A0             Rx   d 8 00 80 00 00 80 00 78 1B
   0.917413 1  CE              Rx   d 8 00 00 00 00 00 00 00 00
   0.917662 1  2B2             Rx   d 8 00 00 00 00 00 80 E7 FF
   0.920260 2  D8              Rx   d 8 FD 7F 00 FF F2 7F 06 07
   0.920386 1  A8              Rx   d 8 EF 46 01 00 00 00 00 00
   0.920504 2  E3              Rx   d 8 00 80 10 00 FE 7F 06 03
   0.920628 1  A9              Rx   d 8 2D 06 00 00 7D 00 00 00
   0.920740 2  165             Rx   d 8 00 00 00 E0 0F 20 E6 EE
   0.920862 1  AA              Rx   d 8 B2 96 01 0D 40 1F 04 00
   0.924342 2  C9              Rx   d 8 FF FF 30 00 10 00 00 00
   0.927132 1  B6              Rx   d 5 07 07 80 00 C8
   0.927157 2  85              Rx   d 8 00 00 00 00 FF FF F5 53
   0.927369 1  19E             Rx   d 8 00 EC 3F FC FF 0C 00 D4
   0.930303 2  D8              Rx   d 8 01 80 00 FF FA 7F 07 0D
   0.930423 1  A8              Rx   d 8 F0 47 01 00 00 00 00 00
   0.930547 2  E3              Rx   d 8 00 80 10 00 F8 7F 07 1B
   0.930667 1  A9              Rx   d 8 2E 07 00 00 7D 00 00 00
   0.930786 2  165             Rx   d 8 00 00 00 E0 0F 20 E7 F3
   0.930902 1  AA              Rx   d 8 B3 97 01 0D 40 1F 04 00
   0.934264 2  C9              Rx   d 8 01 00 40 FF EF 00 00 00
   0.937132 2  85              Rx   d 8 00 00 00 00 FF FF F6 74
   0.937163 1  1A0             Rx   d 8 00 80 00 00 80 00 88 2B
   0.937416 1  CE              Rx   d 8 00 00 00 00 00 00 00 00
   0.937664 1  2B2             Rx   d 8 00 00 00 00 00 80 E7 FF
   0.937848 1  2B3             Rx   d 5 FE 00 80 00 C8
   0.940318 2  D8              Rx   d 8 00 80 00 FF F7 7F 08 6E
   0.940448 1  A8              Rx   d 8 F1 48 01 00 00 00 00 00
   0.940559 2  E3              Rx   d 8 00 80 10 00 F3 7F 08 20
   0.940693 1  A9              Rx   d 8 2F 08 00 00 7D 00 00 00
   0.940795 2  165             Rx   d 8 00 00 00 E0 0F 20 E8 48
   0.940933 1  AA              Rx   d 8 B4 98 01 0D 40 1F 04 00
   0.944286 2  C9              Rx   d 8 00 00 50 FF E7 00 00 00
   0.944536 2  AA              Rx   d 8 00 00 00 00 00 00 00 00
   0.947113 1  B6              Rx   d 5 08 08 80 00 C8
   0.947142 2  85              Rx   d 8 00 00 00 00 FF FF F7 69
   0.947350 1  19E             Rx   d 8 00 EC 3F FC FF 0C 00 D4
   0.950318 2  D8              Rx   d 8 02 80 00 FF FB 7F 09 C3
   0.950446 1  A8              Rx   d 8 F2 49 01 00 00 00 00 00
   0.950562 2  E3              Rx   d 8 00 80 10 00 00 80 09 78
   0.950690 1  A9              Rx   d 8 30 09 00 00 7D 00 00 00
   0.950798 2  165             Rx   d 8 00 00 00 E0 0F 20 E9 55
   0.950928 1  AA              Rx   d 8 B5 99 01 0D 40 1F 04 00
   0.951116 1  130             Rx   d 5 05 00 00 40 D0
   0.954253 2  C9              Rx   d 8 01 00 60 FF F7 00 00 00
   0.957145 2  85              Rx   d 8 00 00 00 00 FF FF F8 D2
   0.957179 1  1A0             Rx   d 8 00 80 00 00 80 00 98 3B
   0.957431 1  CE              Rx   d 8 00 00 00 00 00 00 00 00
   0.957679 1  2B2             Rx   d 8 00 00 00 00 00 80 E7 FF
   0.960251 2  D8              Rx   d 8 00 80 00 FF F7 7F 0A 54
   0.960377 1  A8              Rx   d 8 F3 4A 01 00 00 00 00 00
   0.960492 2  E3              Rx   d 8 00 80 10 00 E9 7F 0A 0D
   0.960624 1  A9              Rx   d 8 31 0A 00 00 7D 00 00 00
   0.960728 2  165             Rx   d 8 00 00 00 E0 0F 20 EA 72
   0.960860 1  AA              Rx   d 8 B6 9A 01 0D 40 1F 04 00
   0.964324 2  C9              Rx   d 8 00 00 70 FF EF 00 00 00
   0.967114 1  B6              Rx   d 5 09 09 80 00 C8
   0.967143 2  85              Rx   d 8 00 00 00 00 FF FF F9 CF
   0.967351 1  19E             Rx   d 8 00 EC 3F FC FF 0C 00 D4
   0.970273 2  D8              Rx   d 8 01 80 00 FF FA 7F 0B 91
   0.970397 1  A8              Rx   d 8 F4 4B 01 00 00 00 00 00
   0.970513 2  E3              Rx   d 8 00 80 10 00 E8 7F 0B 9F
   0.970641 1  A9              Rx   d 8 32 0B 00 00 7D 00 00 00
   0.970751 2  165             Rx   d 8 00 00 00 E0 0F 20 EB 6F
   0.970875 1  AA              Rx   d 8 B7 9B 01 0D 40 1F 04 00
   0.974345 2  C9              Rx   d 8 01 00 80 FF E7 00 00 00
   0.977119 2  85              Rx   d 8 00 00 00 00 FF FF FA E8
   0.977155 1  1A6             Rx   d 8 00 00 00 00 00 00 10 FC
   0.977408 1  CE              Rx   d 8 00 00 00 00 00 00 00 00
   0.977650 1  1A0             Rx   d 8 00 80 00 00 80 00 A8 4B
   0.977898 1  2B2             Rx   d 8 00 00 00 00 00 80 E7 FF
   0.980282 2  D8              Rx   d 8 FF 7F 00 FF F6 7F 0C 69
   0.980410 1  A8              Rx   d 8 F5 4C 01 00 00 00 00 00
   0.980520 2  E3              Rx   d 8 00 80 10 00 ED 7F 0C 45
   0.980652 1  A9              Rx   d 8 33 0C 00 00 7D 00 00 00
   0.980758 2  165             Rx   d 8 00 00 00 E0 0F 20 EC 3C
   0.980887 1  AA              Rx   d 8 B8 9C 01 0D 40 1F 04 00
   0.984252 2  C9              Rx   d 8 00 00 90 FF F7 00 00 00
   0.987113 1  B6              Rx   d 5 0A 0A 80 00 C8
   0.987144 2  85              Rx   d 8 00 00 00 00 FF FF FB F5
   0.987349 1  19E             Rx   d 8 00 EC 4F FC FF 0C 00 E4
   0.987529 1  2B3             Rx   d 5 DF E1 7F 00 C8
   0.990256 2  D8              Rx   d 8 FF 7F 00 FF F5 7F 0D F8
   0.990382 1  A8              Rx   d 8 F6 4D 01 00 00 00 00 00
   0.990497 2  E3              Rx   d 8 00 80 10 00 FC 7F 0D CF
   0.990626 1  A9              Rx   d 8 34 0D 00 00 7D 00 00 00
   0.990733 2  165             Rx   d 8 00 00 00 E0 0F 20 ED 21
   0.990863 1  AA              Rx   d 8 B9 9D 01 0D 40 1F 04 00
   0.994334 2  C9              Rx   d 8 FF FF A0 00 08 00 00 00
   0.997126 2  85              Rx   d 8 00 00 00 00 FF FF FC A6
   0.997159 1  1A0             Rx   d 8 00 80 00 00 80 00 B8 5B
   0.997411 1  CE              Rx   d 8 00 00 00 00 00 00 00 00
   0.997659 1  2B2             Rx   d 8 00 00 00 00 00 80 E7 FF
   1.000338 2  D8              Rx   d 8 FF 7F 00 FF F6 7F 0E 53
   1.000469 1  A8              Rx   d 8 F7 4E 01 00 00 00 00 00
   1.000576 2  E3              Rx   d 8 00 80 10 00 FE 7F 0E EB
   1.000712 1  A9              Rx   d 8 35 0E 00 00 7D 00 00 00
   1.000815 2  165             Rx   d 8 00 00 00 E0 0F 20 EE 06
   1.000948 1  AA              Rx   d 8 BA 9E 01 0D 40 1F 04 00
   1.004303 2  C9              Rx   d 8 00 00 B0 FF E7 00 00 00
   1.007112 1  B6              Rx   d 5 0B 0B 80 00 C8
   1.007143 2  85              Rx   d 8 00 00 00 00 FF FF FD BB
   1.007348 1  19E             Rx   d 8 00 EC 4F FC FF 0C 00 E4
   1.010271 2  D8              Rx   d 8 00 80 00 FF F8 7F 00 00
   1.010392 1  A8              Rx   d 8 E9 40 01 00 00 00 00 00
   1.010509 2  E3              Rx   d 8 00 80 10 00 F3 7F 00 C8
   1.010636 1  A9              Rx   d 8 27 00 00 00 7D 00 00 00
   1.010749 2  165             Rx   d 8 00 00 00 E0 0F 20 E0 A0
   1.010875 1  AA              Rx   d 8 AC 90 01 0D 40 1F 04 00
   1.011163 1  34F             Rx   d 2 01 00
   1.011697 1  Statistic: D 607 R 0 XD 0 XR 0 E 0 O 0 B 14.23%
   1.011705 2  Statistic: D 505 R 0 XD 0 XR 0 E 0 O 0 B 12.21%
   1.014303 2  C9              Rx   d 8 00 00 C0 FF F7 00 00 00
   1.017150 2  85              Rx   d 8 00 00 00 00 FF FF FE 9C
   1.017183 1  1A0             Rx   d 8 00 80 00 00 80 00 C8 6B
   1.017435 1  CE              Rx   d 8 00 00 00 00 00 00 00 00
   1.017683 1  2B2             Rx   d 8 00 00 00 00 00 80 E7 FF
   1.020312 2  D8              Rx   d 8 02 80 00 FF FA 7F 01 A4
   1.020442 1  A8              Rx   d 8 EA 41 01 00 00 00 00 00
   1.020552 2  E3              Rx   d 8 00 80 10 00 EF 7F 01 C7
   1.020688 1  A9              Rx   d 8 28 01 00 00 7D 00 00 00
   1.020789 2  165             Rx   d 8 00 00 00 E0 0F 20 E1 BD
   1.020922 1  AA              Rx   d 8 AD 91 01 0D 40 1F 04 00
   1.024281 2  C9              Rx   d 8 01 00 D0 FF EF 00 00 00
   1.027134 1  B6              Rx   d 5 0C 0C 80 00 C8
   1.027161 2  85              Rx   d 8 00 00 00 00 FF FF F0 3A
   1.027371 1  19E             Rx   d 8 00 EC 4F FC FF 0C 00 E4
   1.030237 2  D8              Rx   d 8 FE 7F 00 FF F2 7F 02 94
   1.030363 1  A8              Rx   d 8 EB 42 01 00 00 00 00 00
   1.030478 2  E3              Rx   d 8 00 80 10 00 F3 7F 02 F2
   1.030607 1  A9              Rx   d 8 29 02 00 00 7D 00 00 00
   1.030714 2  165             Rx   d 8 00 00 00 E0 0F 20 E2 9A
   1.030842 1  AA              Rx   d 8 AE 92 01 0D 40 1F 04 00
   1.034316 2  C9              Rx   d 8 FF FF E0 00 00 00 00 00
   1.037122 2  85              Rx   d 8 00 00 00 00 FF FF F1 27
   1.037154 1  1A0             Rx   d 8 00 80 00 00 80 00 D8 7B
   1.037406 1  CE              Rx   d 8 00 00 00 00 00 00 00 00
   1.037654 1  2B2             Rx   d 8 00 00 00 00 00 80 E7 FF
   1.037839 1  2B3             Rx   d 5 F0 F2 7F 00 C8
   1.040260 2  D8              Rx   d 8 01 80 00 FF F8 7F 03 7A
   1.040385 1  A8              Rx   d 8 EC 43 01 00 00 00 00 00
   1.040501 2  E3              Rx   d 8 00 80 10 00 08 80 03 A6
   1.040627 1  A9              Rx   d 8 2A 03 00 00 7D 00 00 00
   1.040737 2  165             Rx   d 8 00 00 00 E0 0F 20 E3 87
   1.040865 1  AA              Rx   d 8 AF 93 01 0D 40 1F 04 00
   1.044341 2  C9              Rx   d 8 00 00 00 FF F7 00 00 00
   1.047111 1  B6              Rx   d 5 0D 0D 80 00 C8
   1.047145 2  85              Rx   d 8 00 00 00 00 FF FF F2 00
   1.047348 1  19E             Rx   d 8 00 EC 4F FC FF 0C 00 E4
   1.050293 2  D8              Rx   d 8 01 80 00 FF F8 7F 04 29
   1.050420 1  A8              Rx   d 8 ED 44 01 00 00 00 00 00
   1.050531 2  E3              Rx   d 8 00 80 10 00 F6 7F 04 35
   1.050664 1  A9              Rx   d 8 2B 04 00 00 7D 00 00 00
   1.050769 2  165             Rx   d 8 00 00 00 E0 0F 20 E4 D4
   1.050898 1  AA              Rx   d 8 B0 94 01 0D 40 1F 04 00
   1.051086 1  130             Rx   d 5 05 00 00 40 E1
   1.054342 2  C9              Rx   d 8 00 00 10 FF EF 00 00 00
   1.055339 1  480             Rx   d 8 00 04 FF FF 00 00 00 00
   1.057156 2  85              Rx   d 8 00 00 00 00 FF FF F3 1D
   1.057189 1  1A0             Rx   d 8 00 80 00 00 80 00 E8 8B
   1.057441 1  CE              Rx   d 8 00 00 00 00 00 00 00 00
   1.057689 1  2B2             Rx   d 8 00 00 00 00 00 80 E7 FF
   1.060306 2  D8              Rx   d 8 FF 7F 00 FF F5 7F 05 10
   1.060429 1  A8              Rx   d 8 EE 45 01 00 00 00 00 00
   1.060549 2  E3              Rx   d 8 00 80 10 00 F8 7F 05 21
   1.060672 1  A9              Rx   d 8 2C 05 00 00 7D 00 00 00
   1.060787 2  165             Rx   d 8 00 00 00 E0 0F 20 E5 C9
   1.060908 1  AA              Rx   d 8 B1 95 01 0D 40 1F 04 00
   1.064269 2  C9              Rx   d 8 FF FF 20 00 00 00 00 00
   1.067114 1  B6              Rx   d 5 0E 0E 80 00 C8
   1.067144 2  85              Rx   d 8 00 00 00 00 FF FF F4 4E
   1.067351 1  19E             Rx   d 8 00 EC 4F FC FF 0C 00 E4
   1.070328 2  D8              Rx   d 8 02 80 00 FF FC 7F 06 F2
   1.070451 1  A8              Rx   d 8 EF 46 01 00 00 00 00 00
   1.070568 2  E3              Rx   d 8 00 80 10 00 F9 7F 06 89
   1.070693 1  A9              Rx   d 8 2D 06 00 00 7D 00 00 00
   1.070804 2  165             Rx   d 8 00 00 00 E0 0F 20 E6 EE
   1.070928 1  AA              Rx   d 8 B2 96 01 0D 40 1F 04 00
   1.074288 2  C9              Rx   d 8 01 00 30 FF F7 00 00 00
   1.075280 1  492             Rx   d 8 12 04 FF FF 00 00 00 00
   1.077134 2  85              Rx   d 8 00 00 00 00 FF FF F5 53
   1.077172 1  1A6             Rx   d 8 00 00 00 00 00 00 A0 FD
   1.077424 1  CE              Rx   d 8 00 00 00 00 00 00 00 00
   1.077667 1  1A0             Rx   d 8 00 80 00 00 80 00 08 AA
   1.077915 1  2B2             Rx   d 8 00 00 00 00 00 80 E7 FF
   1.080311 2  D8              Rx   d 8 FE 7F 00 FF F3 7F 07 72
   1.080437 1  A8              Rx   d 8 F0 47 01 00 00 00 00 00
   1.080551 2  E3              Rx   d 8 00 80 10 00 F7 7F 07 9D
   1.080681 1  A9              Rx   d 8 2E 07 00 00 7D 00 00 00
   1.080789 2  165             Rx   d 8 00 00 00 E0 0F 20 E7 F3
   1.080915 1  AA              Rx   d 8 B3 97 01 0D 40 1F 04 00
   1.084279 2  C9              Rx   d 8 FF FF 40 00 08 00 00 00
   1.085385 1  498             Rx   d 8 18 04 FF FF 00 00 00 00
   1.087132 1  B6              Rx   d 5 FF 00 80 00 C8
   1.087159 2  85              Rx   d 8 00 00 00 00 FF FF F6 74
   1.087368 1  19E             Rx   d 8 00 EC 4F FC FF 0C 00 E4
   1.087550 1  2B3             Rx   d 5 F1 F3 7F 00 C8
   1.090255 2  D8              Rx   d 8 03 80 00 FF FE 7F 08 0A
   1.090382 1  A8              Rx   d 8 F1 48 01 00 00 00 00 00
   1.090492 2  E3              Rx   d 8 00 80 10 00 F2 7F 08 AF
   1.090627 1  A9              Rx   d 8 2F 08 00 00 7D 00 00 00
   1.090728 2  165             Rx   d 8 00 00 00 E0 0F 20 E8 48
   1.090867 1  AA              Rx   d 8 B4 98 01 0D 40 1F 04 00
   1.094329 2  C9              Rx   d 8 02 00 50 FF E7 00 00 00
   1.095330 1  4B0             Rx   d 8 30 04 FF FF 00 00 00 00
   1.097137 2  85              Rx   d 8 00 00 00 00 FF FF F7 69
   1.097168 1  1A0             Rx   d 8 00 80 00 00 80 00 18 BA
   1.097420 1  CE              Rx   d 8 00 00 00 00 00 00 00 00
   1.097668 1  2B2             Rx   d 8 00 00 00 00 00 80 E7 FF
   1.100315 2  D8              Rx   d 8 01 80 00 FF F9 7F 09 27
   1.100436 1  A8              Rx   d 8 F2 49 01 00 00 00 00 00
   1.100556 2  E3              Rx   d 8 00 80 10 00 FC 7F 09 BB
   1.100681 1  A9              Rx   d 8 30 09 00 00 7D 00 00 00
   1.100792 2  165             Rx   d 8 00 00 00 E0 0F 20 E9 55
   1.100919 1  AA              Rx   d 8 B5 99 01 0D 40 1F 04 00
   1.104274 2  C9              Rx   d 8 01 00 60 FF F7 00 00 00
   1.107117 1  B6              Rx   d 5 00 01 80 00 C8
   1.107140 2  85              Rx   d 8 00 00 00 00 FF FF F8 D2
   1.107353 1  19E             Rx   d 8 00 EC 4F FC FF 0C 00 E4
   1.110229 2  D8              Rx   d 8 FE 7F 00 FF F4 7F 0A 79
   1.110360 1  A8              Rx   d 8 F3 4A 01 00 00 00 00 00
   1.110467 2  E3              Rx   d 8 00 80 10 00 EF 7F 0A 08
   1.110606 1  A9              Rx   d 8 31 0A 00 00 7D 00 00 00
   1.110703 2  165             Rx   d 8 00 00 00 E0 0F 20 EA 72
   1.110842 1  AA              Rx   d 8 B6 9A 01 0D 40 1F 04 00
   1.114311 2  C9              Rx   d 8 FF FF 70 00 08 00 00 00
   1.117121 2  85              Rx   d 8 00 00 00 00 FF FF F9 CF
   1.117154 1  1A0             Rx   d 8 00 80 00 00 80 00 28 CA
   1.117406 1  CE              Rx   d 8 00 00 00 00 00 00 00 00
   1.117655 1  2B2             Rx   d 8 00 00 00 00 00 80 E7 FF
   1.120319 2  D8              Rx   d 8 03 80 00 FF FD 7F 0B A1
   1.120445 1  A8              Rx   d 8 F4 4B 01 00 00 00 00 00
   1.120560 2  E3              Rx   d 8 00 80 10 00 F5 7F 0B 02
   1.120689 1  A9              Rx   d 8 32 0B 00 00 7D 00 00 00
   1.120798 2  165             Rx   d 8 00 00 00 E0 0F 20 EB 6F
   1.120923 1  AA              Rx   d 8 B7 9B 01 0D 40 1F 04 00
   1.124278 2  C9              Rx   d 8 02 00 80 FF E7 00 00 00
   1.127127 1  B6              Rx   d 5 02 02 80 00 C8
   1.127154 2  85              Rx   d 8 00 00 00 00 FF FF FA E8
   1.127364 1  19E             Rx   d 8 00 EC 4F FC FF 0C 00 E4
   1.130238 2  D8              Rx   d 8 FE 7F 00 FF F4 7F 0C 37
   1.130364 1  A8              Rx   d 8 F5 4C 01 00 00 00 00 00
   1.130477 2  E3              Rx   d 8 00 80 10 00 F1 7F 0C 57
   1.130606 1  A9              Rx   d 8 33 0C 00 00 7D 00 00 00
   1.130715 2  165             Rx   d 8 00 00 00 E0 0F 20 EC 3C
   1.130841 1  AA              Rx   d 8 B8 9C 01 0D 40 1F 04 00
   1.134322 2  C9              Rx   d 8 FF FF 90 00 10 00 00 00
   1.137130 2  85              Rx   d 8 00 00 00 00 FF FF FB F5
   1.137161 1  1A0             Rx   d 8 00 80 00 00 80 00 38 DA
   1.137413 1  CE              Rx   d 8 00 00 00 00 00 00 00 00
   1.137661 1  2B2             Rx   d 8 00 00 00 00 00 80 E7 FF
   1.137842 1  2B3             Rx   d 5 F2 F4 7F 00 C8
   1.140262 2  D8              Rx   d 8 01 80 00 FF F9 7F 0D 53
   1.140386 1  A8              Rx   d 8 F6 4D 01 00 00 00 00 00
   1.140498 2  E3              Rx   d 8 00 80 10 00 EE 7F 0D D4
   1.140630 1  A9              Rx   d 8 34 0D 00 00 7D 00 00 00
   1.140735 2  165             Rx   d 8 00 00 00 E0 0F 20 ED 21
   1.140866 1  AA              Rx   d 8 B9 9D 01 0D 40 1F 04 00
   1.144341 2  C9              Rx   d 8 01 00 A0 FF EF 00 00 00
   1.144368 1  308             Rx   d 3 52 02 00
   1.144591 2  AA              Rx   d 8 00 00 00 00 00 00 00 00
   1.145239 1  310             Rx   d 7 78 04 AB 1E 00 D0 07
   1.147171 1  B6              Rx   d 5 03 03 80 00 C8
   1.147197 2  85              Rx   d 8 00 00 00 00 FF FF FC A6
   1.147407 1  19E             Rx   d 8 00 EC 4F FC FF 0C 00 E4
   1.150313 2  D8              Rx   d 8 FF 7F 00 FF F6 7F 0E 53
   1.150441 1  A8              Rx   d 8 F7 4E 01 00 00 00 00 00
   1.150551 2  E3              Rx   d 8 00 80 10 00 FE 7F 0E EB
   1.150683 1  A9              Rx   d 8 35 0E 00 00 7D 00 00 00
   1.150789 2  165             Rx   d 8 00 00 00 E0 0F 20 EE 06
   1.150919 1  AA              Rx   d 8 BA 9E 01 0D 40 1F 04 00
   1.151106 1  130             Rx   d 5 05 00 00 40 F2
   1.154242 2  C9              Rx   d 8 00 00 B0 FF E7 00 00 00
   1.157146 2  85              Rx   d 8 00 00 00 00 FF FF FD BB
   1.157178 1  1A0             Rx   d 8 00 80 00 00 80 00 48 EA
   1.157430 1  CE              Rx   d 8 00 00 00 00 00 00 00 00
   1.157679 1  2B2             Rx   d 8 00 00 00 00 00 80 E7 FF
   1.160242 2  D8              Rx   d 8 02 80 00 FF FB 7F 00 36
   1.160371 1  A8              Rx   d 8 E9 40 01 00 00 00 00 00
   1.160481 2  E3              Rx   d 8 00 80 10 00 F3 7F 00 C8
   1.160615 1  A9              Rx   d 8 27 00 00 00 7D 00 00 00
   1.160721 2  165             Rx   d 8 00 00 00 E0 0F 20 E0 A0
   1.160854 1  AA              Rx   d 8 AC 90 01 0D 40 1F 04 00
   1.164315 2  C9              Rx   d 8 01 00 C0 FF F7 00 00 00
   1.167124 1  B6              Rx   d 5 04 04 80 00 C8
   1.167146 2  85              Rx   d 8 00 00 00 00 FF FF FE 9C
   1.167360 1  19E             Rx   d 8 00 EC 4F FC FF 0C 00 E4
   1.167608 1  4A9             Rx   d 8 29 01 FF FF FF FF FF FF
   1.170290 2  D8              Rx   d 8 FF 7F 00 FF F6 7F 01 E8
   1.170418 1  A8              Rx   d 8 EA 41 01 00 00 00 00 00
   1.170530 2  E3              Rx   d 8 00 80 10 00 FA 7F 01 56
   1.170665 1  A9              Rx   d 8 28 01 00 00 7D 00 00 00
   1.170766 2  165             Rx   d 8 00 00 00 E0 0F 20 E1 BD
   1.170899 1  AA              Rx   d 8 AD 91 01 0D 40 1F 04 00
   1.174250 2  C9              Rx   d 8 00 00 D0 FF EF 00 00 00
   1.177130 2  85              Rx   d 8 00 00 00 00 FF FF F0 3A
   1.177159 1  1A6             Rx   d 8 00 00 00 00 00 00 30 FF
   1.177412 1  CE              Rx   d 8 00 00 00 00 00 00 00 00
   1.177656 1  1A0             Rx   d 8 00 80 00 00 80 00 58 FA
   1.177904 1  2B2             Rx   d 8 00 00 00 00 00 80 E7 FF
   1.180307 2  D8              Rx   d 8 00 80 00 FF F6 7F 02 33
   1.180436 1  A8              Rx   d 8 EB 42 01 00 00 00 00 00
   1.180549 2  E3              Rx   d 8 00 80 10 00 F7 7F 02 F4
   1.180680 1  A9              Rx   d 8 29 02 00 00 7D 00 00 00
   1.180785 2  165             Rx   d 8 00 00 00 E0 0F 20 E2 9A
   1.180915 1  AA              Rx   d 8 AE 92 01 0D 40 1F 04 00
   1.184275 2  C9              Rx   d 8 00 00 E0 FF E7 00 00 00
   1.187113 1  B6              Rx   d 5 05 05 80 00 C8
   1.187139 2  85              Rx   d 8 00 00 00 00 FF FF F1 27
   1.187351 1  19E             Rx   d 8 00 EC 5F FC FF 0C 00 F4
   1.187535 1  2B3             Rx   d 5 F3 F5 7F 00 C8
   1.187722 1  374             Rx   d 5 80 80 80 80 FC
   1.190323 2  D8              Rx   d 8 01 80 00 FF FA 7F 03 79
   1.190452 1  A8              Rx   d 8 EC 43 01 00 00 00 00 00
   1.190563 2  E3              Rx   d 8 00 80 10 00 E6 7F 03 7E
   1.190694 1  A9              Rx   d 8 2A 03 00 00 7D 00 00 00
   1.190800 2  165             Rx   d 8 00 00 00 E0 0F 20 E3 87
   1.190932 1  AA              Rx   d 8 AF 93 01 0D 40 1F 04 00
   1.194288 2  C9              Rx   d 8 01 00 00 FF F7 00 00 00
   1.197126 2  85              Rx   d 8 00 00 00 00 FF FF F2 00
   1.197156 1  1A0             Rx   d 8 00 80 00 00 80 00 68 0B
   1.197409 1  CE              Rx   d 8 00 00 00 00 00 00 00 00
   1.197657 1  2B2             Rx   d 8 00 00 00 00 00 80 E7 FF
   1.200300 2  D8              Rx   d 8 00 80 00 FF F6 7F 04 7D
   1.200425 1  A8              Rx   d 8 ED 44 01 00 00 00 00 00
   1.200545 2  E3              Rx   d 8 00 80 10 00 F0 7F 04 30
   1.200669 1  A9              Rx   d 8 2B 04 00 00 7D 00 00 00
   1.200783 2  165             Rx   d 8 00 00 00 E0 0F 20 E4 D4
   1.200904 1  AA              Rx   d 8 B0 94 01 0D 40 1F 04 00
   1.204268 2  C9              Rx   d 8 00 00 10 FF EF 00 00 00
   1.207114 1  B6              Rx   d 5 06 06 80 00 C8
   1.207140 2  85              Rx   d 8 00 00 00 00 FF FF F3 1D
   1.207352 1  19E             Rx   d 8 00 EC 5F FC FF 0C 00 F4
   1.210330 2  D8              Rx   d 8 FF 7F 00 FF F5 7F 05 10
   1.210456 1  A8              Rx   d 8 EE 45 01 00 00 00 00 00
   1.210568 2  E3              Rx   d 8 00 80 10 00 EF 7F 05 B3
   1.210699 1  A9              Rx   d 8 2C 05 00 00 7D 00 00 00
   1.210806 2  165             Rx   d 8 00 00 00 E0 0F 20 E5 C9
   1.210935 1  AA              Rx   d 8 B1 95 01 0D 40 1F 04 00
   1.214300 2  C9              Rx   d 8 FF FF 20 00 00 00 00 00
   1.217119 2  85              Rx   d 8 00 00 00 00 FF FF F4 4E
   1.217151 1  1A0             Rx   d 8 00 80 00 00 80 00 78 1B
   1.217403 1  CE              Rx   d 8 00 00 00 00 00 00 00 00
   1.217651 1  2B2             Rx   d 8 00 00 00 00 00 80 E7 FF
   1.220305 2  D8              Rx   d 8 FF 7F 00 FF F6 7F 06 BB
   1.220428 1  A8              Rx   d 8 EF 46 01 00 00 00 00 00
   1.220547 2  E3              Rx   d 8 00 80 10 00 F5 7F 06 83
   1.220670 1  A9              Rx   d 8 2D 06 00 00 7D 00 00 00
   1.220784 2  165             Rx   d 8 00 00 00 E0 0F 20 E6 EE
   1.220904 1  AA              Rx   d 8 B2 96 01 0D 40 1F 04 00
   1.224268 2  C9              Rx   d 8 00 00 30 FF F7 00 00 00
   1.227126 1  B6              Rx   d 5 07 07 80 00 C8
   1.227152 2  85              Rx   d 8 00 00 00 00 FF FF F5 53
   1.227365 1  19E             Rx   d 8 00 EC 5F FC FF 0C 00 F4
   1.230226 2  D8              Rx   d 8 FF 7F 00 FF F4 7F 07 A5
   1.230351 1  A8              Rx   d 8 F0 47 01 00 00 00 00 00
   1.230465 2  E3              Rx   d 8 00 80 10 00 F4 7F 07 11
   1.230595 1  A9              Rx   d 8 2E 07 00 00 7D 00 00 00
   1.230703 2  165             Rx   d 8 00 00 00 E0 0F 20 E7 F3
   1.230830 1  AA              Rx   d 8 B3 97 01 0D 40 1F 04 00
   1.234309 2  C9              Rx   d 8 FF FF 40 00 08 00 00 00
   1.237125 2  85              Rx   d 8 00 00 00 00 FF FF F6 74
   1.237156 1  1A0             Rx   d 8 00 80 00 00 80 00 88 2B
   1.237408 1  CE              Rx   d 8 00 00 00 00 00 00 00 00
   1.237656 1  2B2             Rx   d 8 00 00 00 00 00 80 E7 FF
   1.237837 1  2B3             Rx   d 5 F4 F6 7F 00 C8
   1.240247 2  D8              Rx   d 8 00 80 00 FF F7 7F 08 6E
   1.240377 1  A8              Rx   d 8 F1 48 01 00 00 00 00 00
   1.240487 2  E3              Rx   d 8 00 80 10 00 F3 7F 08 20
   1.240621 1  A9              Rx   d 8 2F 08 00 00 7D 00 00 00
   1.240724 2  165             Rx   d 8 00 00 00 E0 0F 20 E8 48
   1.240861 1  AA              Rx   d 8 B4 98 01 0D 40 1F 04 00
   1.244330 2  C9              Rx   d 8 00 00 50 FF E7 00 00 00
   1.247107 1  B6              Rx   d 5 08 08 80 00 C8
   1.247138 2  85              Rx   d 8 00 00 00 00 FF FF F7 69
   1.247346 1  19E             Rx   d 8 00 EC 5F FC FF 0C 00 F4
   1.250284 2  D8              Rx   d 8 00 80 00 FF F7 7F 09 73
   1.250410 1  A8              Rx   d 8 F2 49 01 00 00 00 00 00
   1.250520 2  E3              Rx   d 8 00 80 10 00 F7 7F 09 3B
   1.250654 1  A9              Rx   d 8 30 09 00 00 7D 00 00 00
   1.250756 2  165             Rx   d 8 00 00 00 E0 0F 20 E9 55
   1.250892 1  AA              Rx   d 8 B5 99 01 0D 40 1F 04 00
   1.251080 1  130             Rx   d 5 05 00 00 40 03
   1.254330 2  C9              Rx   d 8 00 00 60 FF F7 00 00 00
   1.257143 2  85              Rx   d 8 00 00 00 00 FF FF F8 D2
   1.257177 1  1A0             Rx   d 8 00 80 00 00 80 00 98 3B
   1.257429 1  CE              Rx   d 8 00 00 00 00 00 00 00 00
   1.257677 1  2B2             Rx   d 8 00 00 00 00 00 80 E7 FF
   1.260325 2  D8              Rx   d 8 01 80 00 FF FA 7F 0A 8C
   1.260451 1  A8              Rx   d 8 F3 4A 01 00 00 00 00 00
   1.260565 2  E3              Rx   d 8 00 80 10 00 06 80 0A 5A
   1.260698 1  A9              Rx   d 8 31 0A 00 00 7D 00 00 00
   1.260802 2  165             Rx   d 8 00 00 00 E0 0F 20 EA 72
   1.260934 1  AA              Rx   d 8 B6 9A 01 0D 40 1F 04 00
   1.264282 2  C9              Rx   d 8 01 00 70 FF EF 00 00 00
   1.267110 1  B6              Rx   d 5 09 09 80 00 C8
   1.267140 2  85              Rx   d 8 00 00 00 00 FF FF F9 CF
   1.267348 1  19E             Rx   d 8 00 EC 5F FC FF 0C 00 F4
   1.267597 1  4A9             Rx   d 8 29 02 FF FF FF FF FF FF
   1.270262 2  D8              Rx   d 8 01 80 00 FF F9 7F 0B 1D
   1.270391 1  A8              Rx   d 8 F4 4B 01 00 00 00 00 00
   1.270501 2  E3              Rx   d 8 00 80 10 00 FD 7F 0B 0E
   1.270636 1  A9              Rx   d 8 32 0B 00 00 7D 00 00 00
   1.270739 2  165             Rx   d 8 00 00 00 E0 0F 20 EB 6F
   1.270870 1  AA              Rx   d 8 B7 9B 01 0D 40 1F 04 00
   1.274221 2  C9              Rx   d 8 01 00 80 FF E7 00 00 00
   1.277119 2  85              Rx   d 8 00 00 00 00 FF FF FA E8
   1.277154 1  1A6             Rx   d 8 00 00 00 00 00 00 C0 F0
   1.277406 1  CE              Rx   d 8 00 00 00 00 00 00 00 00
   1.277649 1  1A0             Rx   d 8 00 80 00 00 80 00 A8 4B
   1.277897 1  2B2             Rx   d 8 00 00 00 00 00 80 E7 FF
   1.280277 2  D8              Rx   d 8 01 80 00 FF F9 7F 0C 4E
   1.280401 1  A8              Rx   d 8 F5 4C 01 00 00 00 00 00
   1.280513 2  E3              Rx   d 8 00 80 10 00 F6 7F 0C DD
   1.280643 1  A9              Rx   d 8 33 0C 00 00 7D 00 00 00
   1.280752 2  165             Rx   d 8 00 00 00 E0 0F 20 EC 3C
   1.280877 1  AA              Rx   d 8 B8 9C 01 0D 40 1F 04 00
   1.284246 2  C9              Rx   d 8 00 00 90 FF F7 00 00 00
   1.287112 1  B6              Rx   d 5 0A 0A 80 00 C8
   1.287144 2  85              Rx   d 8 00 00 00 00 FF FF FB F5
   1.287350 1  19E             Rx   d 8 00 EC 5F FC FF 0C 00 F4
   1.287538 1  2B3             Rx   d 5 06 07 80 00 C8
   1.290248 2  D8              Rx   d 8 01 80 00 FF FA 7F 0D DF
   1.290374 1  A8              Rx   d 8 F6 4D 01 00 00 00 00 00
   1.290487 2  E3              Rx   d 8 00 80 10 00 F2 7F 0D C6
   1.290619 1  A9              Rx   d 8 34 0D 00 00 7D 00 00 00
   1.290723 2  165             Rx   d 8 00 00 00 E0 0F 20 ED 21
   1.290855 1  AA              Rx   d 8 B9 9D 01 0D 40 1F 04 00
   1.294325 2  C9              Rx   d 8 01 00 A0 FF EF 00 00 00
   1.297122 2  85              Rx   d 8 00 00 00 00 FF FF FC A6
   1.297157 1  1A0             Rx   d 8 00 80 00 00 80 00 B8 5B
   1.297410 1  CE              Rx   d 8 00 00 00 00 00 00 00 00
   1.297658 1  2B2             Rx   d 8 00 00 00 00 00 80 E7 FF
   1.300218 2  D8              Rx   d 8 FF 7F 00 FF F6 7F 0E 53
   1.300348 1  A8              Rx   d 8 F7 4E 01 00 00 00 00 00
   1.300458 2  E3              Rx   d 8 00 80 10 00 F8 7F 0E EE
   1.300590 1  A9              Rx   d 8 35 0E 00 00 7D 00 00 00
   1.300696 2  165             Rx   d 8 00 00 00 E0 0F 20 EE 06
   1.300826 1  AA              Rx   d 8 BA 9E 01 0D 40 1F 04 00
   1.304296 2  C9              Rx   d 8 00 00 B0 FF E7 00 00 00
   1.307108 1  B6              Rx   d 5 0B 0B 80 00 C8
   1.307140 2  85              Rx   d 8 00 00 00 00 FF FF FD BB
   1.307346 1  19E             Rx   d 8 00 EC 5F FC FF 0C 00 F4
   1.310256 2  D8              Rx   d 8 02 80 00 FF FC 7F 00 BC
   1.310387 1  A8              Rx   d 8 E9 40 01 00 00 00 00 00
   1.310501 2  E3              Rx   d 8 00 80 10 00 08 80 00 81
   1.310631 1  A9              Rx   d 8 27 00 00 00 7D 00 00 00
   1.310741 2  165             Rx   d 8 00 00 00 E0 0F 20 E0 A0
   1.310869 1  AA              Rx   d 8 AC 90 01 0D 40 1F 04 00
   1.314223 2  C9              Rx   d 8 01 00 C0 FF F7 00 00 00
   1.317125 2  85              Rx   d 8 00 00 00 00 FF FF FE 9C
   1.317159 1  1A0             Rx   d 8 00 80 00 00 80 00 C8 6B
   1.317411 1  CE              Rx   d 8 00 00 00 00 00 00 00 00
   1.317660 1  2B2             Rx   d 8 00 00 00 00 00 80 E7 FF
   1.320231 2  D8              Rx   d 8 01 80 00 FF F9 7F 01 CF
   1.320354 1  A8              Rx   d 8 EA 41 01 00 00 00 00 00
   1.320470 2  E3              Rx   d 8 00 80 10 00 ED 7F 01 C4
   1.320600 1  A9              Rx   d 8 28 01 00 00 7D 00 00 00
   1.320706 2  165             Rx   d 8 00 00 00 E0 0F 20 E1 BD
   1.320834 1  AA              Rx   d 8 AD 91 01 0D 40 1F 04 00
   1.324303 2  C9              Rx   d 8 00 00 D0 FF EF 00 00 00
   1.327126 1  B6              Rx   d 5 0C 0C 80 00 C8
   1.327155 2  85              Rx   d 8 00 00 00 00 FF FF F0 3A
   1.327365 1  19E             Rx   d 8 00 EC 5F FC FF 0C 00 F4
   1.330269 2  D8              Rx   d 8 01 80 00 FF F9 7F 02 E8
   1.330393 1  A8              Rx   d 8 EB 42 01 00 00 00 00 00
   1.330509 2  E3              Rx   d 8 00 80 10 00 F5 7F 02 F7
   1.330637 1  A9              Rx   d 8 29 02 00 00 7D 00 00 00
   1.330745 2  165             Rx   d 8 00 00 00 E0 0F 20 E2 9A
   1.330871 1  AA              Rx   d 8 AE 92 01 0D 40 1F 04 00
   1.334227 2  C9              Rx   d 8 01 00 E0 FF E7 00 00 00
   1.337123 2  85              Rx   d 8 00 00 00 00 FF FF F1 27
   1.337157 1  1A0             Rx   d 8 00 80 00 00 80 00 D8 7B
   1.337409 1  CE              Rx   d 8 00 00 00 00 00 00 00 00
   1.337658 1  2B2             Rx   d 8 00 00 00 00 00 80 E7 FF
   1.337842 1  2B3             Rx   d 5 F6 F8 7F 00 C8
   1.340290 2  D8              Rx   d 8 00 80 00 FF F7 7F 03 A1
   1.340412 1  A8              Rx   d 8 EC 43 01 00 00 00 00 00
   1.340532 2  E3              Rx   d 8 00 80 10 00 F3 7F 03 EF
   1.340654 1  A9              Rx   d 8 2A 03 00 00 7D 00 00 00
   1.340768 2  165             Rx   d 8 00 00 00 E0 0F 20 E3 87
   1.340893 1  AA              Rx   d 8 AF 93 01 0D 40 1F 04 00
   1.344256 2  C9              Rx   d 8 00 00 00 FF F7 00 00 00
   1.344506 2  AA              Rx   d 8 00 00 00 00 00 00 00 00
   1.347109 1  B6              Rx   d 5 0D 0D 80 00 C8
   1.347144 2  85              Rx   d 8 00 00 00 00 FF FF F2 00
   1.347347 1  19E             Rx   d 8 00 EC 5F FC FF 0C 00 F4
   1.350295 2  D8              Rx   d 8 00 80 00 FF F8 7F 04 74
   1.350419 1  A8              Rx   d 8 ED 44 01 00 00 00 00 00
   1.350533 2  E3              Rx   d 8 00 80 10 00 F3 7F 04 BC
   1.350663 1  A9              Rx   d 8 2B 04 00 00 7D 00 00 00
   1.350772 2  165             Rx   d 8 00 00 00 E0 0F 20 E4 D4
   1.350898 1  AA              Rx   d 8 B0 94 01 0D 40 1F 04 00
   1.351084 1  130             Rx   d 5 05 00 00 40 14
   1.354224 2  C9              Rx   d 8 00 00 10 FF EF 00 00 00
   1.357150 2  85              Rx   d 8 00 00 00 00 FF FF F3 1D
   1.357184 1  1A0             Rx   d 8 00 80 00 00 80 00 E8 8B
   1.357437 1  CE              Rx   d 8 00 00 00 00 00 00 00 00
   1.357685 1  2B2             Rx   d 8 00 00 00 00 00 80 E7 FF
   1.360220 2  D8              Rx   d 8 02 80 00 FF FB 7F 05 5F
   1.360341 1  A8              Rx   d 8 EE 45 01 00 00 00 00 00
   1.360464 2  E3              Rx   d 8 00 80 10 00 FC 7F 05 27
   1.360584 1  A9              Rx   d 8 2C 05 00 00 7D 00 00 00
   1.360703 2  165             Rx   d 8 00 00 00 E0 0F 20 E5 C9
   1.360820 1  AA              Rx   d 8 B1 95 01 0D 40 1F 04 00
   1.364293 2  C9              Rx   d 8 01 00 20 FF E7 00 00 00
   1.367110 1  B6              Rx   d 5 0E 0E 80 00 C8
   1.367139 2  85              Rx   d 8 00 00 00 00 FF FF F4 4E
   1.367348 1  19E             Rx   d 8 00 EC 5F FC FF 0C 00 F4
   1.370239 2  D8              Rx   d 8 00 80 00 FF F7 7F 06 C8
   1.370364 1  A8              Rx   d 8 EF 46 01 00 00 00 00 00
   1.370481 2  E3              Rx   d 8 00 80 10 00 FA 7F 06 05
   1.370606 1  A9              Rx   d 8 2D 06 00 00 7D 00 00 00
   1.370718 2  165             Rx   d 8 00 00 00 E0 0F 20 E6 EE
   1.370841 1  AA              Rx   d 8 B2 96 01 0D 40 1F 04 00
   1.374310 2  C9              Rx   d 8 00 00 30 FF F7 00 00 00
   1.377120 2  85              Rx   d 8 00 00 00 00 FF FF F5 53
   1.377153 1  1A6             Rx   d 8 00 00 00 00 00 00 50 F2
   1.377405 1  CE              Rx   d 8 00 00 00 00 00 00 00 00
   1.377647 1  1A0             Rx   d 8 00 80 00 00 80 00 08 AA
   1.377895 1  2B2             Rx   d 8 00 00 00 00 00 80 E7 FF
   1.380250 2  D8              Rx   d 8 02 80 00 FF FB 7F 07 65
   1.380378 1  A8              Rx   d 8 F0 47 01 00 00 00 00 00
   1.380492 2  E3              Rx   d 8 00 80 10 00 FC 7F 07 1D
   1.380622 1  A9              Rx   d 8 2E 07 00 00 7D 00 00 00
   1.380731 2  165             Rx   d 8 00 00 00 E0 0F 20 E7 F3
   1.380857 1  AA              Rx   d 8 B3 97 01 0D 40 1F 04 00
   1.384217 2  C9              Rx   d 8 01 00 40 FF EF 00 00 00
   1.387115 1  B6              Rx   d 5 FF 00 80 00 C8
   1.387141 2  85              Rx   d 8 00 00 00 00 FF FF F6 74
   1.387353 1  19E             Rx   d 8 00 EC 6F FC FF 0C 00 05
   1.387535 1  2B3             Rx   d 5 F7 F9 7F 00 C8
   1.390222 2  D8              Rx   d 8 FF 7F 00 FF F6 7F 08 1D
   1.390351 1  A8              Rx   d 8 F1 48 01 00 00 00 00 00
   1.390462 2  E3              Rx   d 8 00 80 10 00 F0 7F 08 AC
   1.390596 1  A9              Rx   d 8 2F 08 00 00 7D 00 00 00
   1.390698 2  165             Rx   d 8 00 00 00 E0 0F 20 E8 48
   1.390836 1  AA              Rx   d 8 B4 98 01 0D 40 1F 04 00
   1.394304 2  C9              Rx   d 8 00 00 50 FF E7 00 00 00
   1.397120 2  85              Rx   d 8 00 00 00 00 FF FF F7 69
   1.397152 1  1A0             Rx   d 8 00 80 00 00 80 00 18 BA
   1.397404 1  CE              Rx   d 8 00 00 00 00 00 00 00 00
   1.397652 1  2B2             Rx   d 8 00 00 00 00 00 80 E7 FF
   1.400304 2  D8              Rx   d 8 FF 7F 00 FF F6 7F 09 00
   1.400433 1  A8              Rx   d 8 F2 49 01 00 00 00 00 00
   1.400543 2  E3              Rx   d 8 00 80 10 00 F0 7F 09 B1
   1.400677 1  A9              Rx   d 8 30 09 00 00 7D 00 00 00
   1.400779 2  165             Rx   d 8 00 00 00 E0 0F 20 E9 55
   1.400915 1  AA              Rx   d 8 B5 99 01 0D 40 1F 04 00
   1.404277 2  C9              Rx   d 8 00 00 60 FF F7 00 00 00
   1.407115 1  B6              Rx   d 5 00 01 80 00 C8
   1.407137 2  85              Rx   d 8 00 00 00 00 FF FF F8 D2
   1.407353 1  19E             Rx   d 8 00 EC 6F FC FF 0C 00 05
   1.410232 2  D8              Rx   d 8 00 80 00 FF F8 7F 0A D2
   1.410356 1  A8              Rx   d 8 F3 4A 01 00 00 00 00 00
   1.410468 2  E3              Rx   d 8 00 80 10 00 F3 7F 0A 1A
   1.410602 1  A9              Rx   d 8 31 0A 00 00 7D 00 00 00
   1.410704 2  165             Rx   d 8 00 00 00 E0 0F 20 EA 72
   1.410839 1  AA              Rx   d 8 B6 9A 01 0D 40 1F 04 00
   1.414309 2  C9              Rx   d 8 00 00 70 FF EF 00 00 00
   1.417123 2  85              Rx   d 8 00 00 00 00 FF FF F9 CF
   1.417157 1  1A0             Rx   d 8 00 80 00 00 80 00 28 CA
   1.417409 1  CE              Rx   d 8 00 00 00 00 00 00 00 00
   1.417657 1  2B2             Rx   d 8 00 00 00 00 00 80 E7 FF
