date 08/28/25 19:10:31
base hex  timestamps absolute
Begin TriggerBlock 08/28/25 19:10:31
   0.000000 Start of measurement
   0.201165 1  0               Rx   d 8 00 00 00 00 00 CC 00 32
   0.401499 1  0               Rx   d 8 00 00 00 00 01 98 00 66
   0.602210 1  0               Rx   d 8 00 00 00 00 02 66 00 98
   0.802858 1  0               Rx   d 8 00 00 00 00 03 32 00 CC
   1.003648 1  0               Rx   d 8 00 00 00 00 04 00 01 00
   1.204951 1  0               Rx   d 8 00 00 00 00 04 CC 01 32
   1.405930 1  0               Rx   d 8 00 00 00 00 05 98 01 66
   1.607026 1  0               Rx   d 8 00 00 00 00 06 66 01 98
   1.807489 1  0               Rx   d 8 00 00 00 00 07 32 01 CC
   2.007739 1  0               Rx   d 8 00 00 00 00 08 00 02 00
   2.208098 1  0               Rx   d 8 00 00 00 00 08 CC 02 32
   2.408547 1  0               Rx   d 8 00 00 00 00 09 98 02 66
   2.609562 1  0               Rx   d 8 00 00 00 00 0A 66 02 98
   2.809847 1  0               Rx   d 8 00 00 00 00 0B 32 02 CC
   3.010645 1  0               Rx   d 8 00 00 00 00 0C 00 03 00
   3.211386 1  0               Rx   d 8 00 00 00 00 0C CC 03 32
   3.412526 1  0               Rx   d 8 00 00 00 00 0D 98 03 66
   3.613245 1  0               Rx   d 8 00 00 00 00 0E 66 03 98
   3.813713 1  0               Rx   d 8 00 00 00 00 0F 32 03 CC
   4.014112 1  0               Rx   d 8 00 00 00 00 10 00 04 00
   4.214398 1  0               Rx   d 8 00 00 00 00 10 CC 04 32
   4.414982 1  0               Rx   d 8 00 00 00 00 11 98 04 66
   4.615295 1  0               Rx   d 8 00 00 00 00 12 66 04 98
   4.815465 1  0               Rx   d 8 00 00 00 00 13 32 04 CC
   5.016380 1  0               Rx   d 8 00 00 00 00 13 FE 04 FE
   5.216542 1  0               Rx   d 8 00 00 00 00 14 CC 05 32
   5.417300 1  0               Rx   d 8 00 00 00 00 15 98 05 66
   5.617988 1  0               Rx   d 8 00 00 00 00 16 66 05 98
   5.818408 1  0               Rx   d 8 00 00 00 00 17 32 05 CC
   6.019516 1  0               Rx   d 8 00 00 00 00 17 FE 05 FE
   6.220729 1  0               Rx   d 8 00 00 00 00 18 CC 06 32
   6.421086 1  0               Rx   d 8 00 00 00 00 19 98 06 66
   6.621658 1  0               Rx   d 8 00 00 00 00 1A 66 06 98
   6.821893 1  0               Rx   d 8 00 00 00 00 1B 32 06 CC
   7.023523 1  0               Rx   d 8 00 00 00 00 1B FE 06 FE
   7.224499 1  0               Rx   d 8 00 00 00 00 1C CC 07 32
   7.424949 1  0               Rx   d 8 00 00 00 00 1D 98 07 66
   7.625353 1  0               Rx   d 8 00 00 00 00 1E 66 07 98
   7.825592 1  0               Rx   d 8 00 00 00 00 1F 32 07 CC
   8.026488 1  0               Rx   d 8 00 00 00 00 1F FE 07 FE
   8.227611 1  0               Rx   d 8 00 00 00 00 20 CC 08 32
   8.427815 1  0               Rx   d 8 00 00 00 00 21 98 08 66
   8.628525 1  0               Rx   d 8 00 00 00 00 22 66 08 98
   8.829077 1  0               Rx   d 8 00 00 00 00 23 32 08 CC
   9.029962 1  0               Rx   d 8 00 00 00 00 23 FE 08 FE
   9.230475 1  0               Rx   d 8 00 00 00 00 24 CC 09 32
   9.431706 1  0               Rx   d 8 00 00 00 00 25 98 09 66
   9.632166 1  0               Rx   d 8 00 00 00 00 26 66 09 98
   9.832447 1  0               Rx   d 8 00 00 00 00 27 32 09 CC
  10.033648 1  0               Rx   d 8 00 00 00 00 27 FE 09 FE
  10.234917 1  0               Rx   d 8 00 00 00 00 28 CC 0A 32
  10.435382 1  0               Rx   d 8 00 00 00 00 29 98 0A 66
  10.635758 1  0               Rx   d 8 00 00 00 00 2A 66 0A 98
  10.836600 1  0               Rx   d 8 00 00 00 00 2B 32 0A CC
  11.037378 1  0               Rx   d 8 00 00 00 00 2B FE 0A FE
  11.237882 1  0               Rx   d 8 00 00 00 00 2C CC 0B 32
  11.439001 1  0               Rx   d 8 00 00 00 00 2D 98 0B 66
  11.639635 1  0               Rx   d 8 00 00 00 00 2E 66 0B 98
  11.840391 1  0               Rx   d 8 00 00 00 00 2F 32 0B CC
  12.040855 1  0               Rx   d 8 00 00 00 00 2F FE 0B FE
  12.242131 1  0               Rx   d 8 00 00 00 00 30 CC 0C 32
  12.443152 1  0               Rx   d 8 00 00 00 00 31 98 0C 66
  12.644236 1  0               Rx   d 8 00 00 00 00 32 66 0C 98
  12.844648 1  0               Rx   d 8 00 00 00 00 33 32 0C CC
  13.045033 1  0               Rx   d 8 00 00 00 00 33 FE 0C FE
  13.245501 1  0               Rx   d 8 00 00 00 00 34 CC 0D 32
  13.446980 1  0               Rx   d 8 00 00 00 00 35 98 0D 66
  13.647729 1  0               Rx   d 8 00 00 00 00 36 66 0D 98
  13.848694 1  0               Rx   d 8 00 00 00 00 37 32 0D CC
  14.050383 1  0               Rx   d 8 00 00 00 00 37 FE 0D FE
  14.250963 1  0               Rx   d 8 00 00 00 00 38 CC 0E 32
  14.451368 1  0               Rx   d 8 00 00 00 00 39 98 0E 66
  14.652121 1  0               Rx   d 8 00 00 00 00 3A 66 0E 98
  14.853783 1  0               Rx   d 8 00 00 00 00 3B 32 0E CC
  15.054832 1  0               Rx   d 8 00 00 00 00 3B FE 0E FE
  15.255178 1  0               Rx   d 8 00 00 00 00 3C CC 0F 32
  15.456191 1  0               Rx   d 8 00 00 00 00 3D 98 0F 66
  15.656966 1  0               Rx   d 8 00 00 00 00 3E 66 0F 98
  15.857494 1  0               Rx   d 8 00 00 00 00 3F 32 0F CC
  16.058330 1  0               Rx   d 8 00 00 00 00 3F FE 0F FE
  16.259059 1  0               Rx   d 8 00 00 00 00 40 CC 10 32
  16.459296 1  0               Rx   d 8 00 00 00 00 41 98 10 66
  16.659768 1  0               Rx   d 8 00 00 00 00 42 66 10 98
  16.860430 1  0               Rx   d 8 00 00 00 00 43 32 10 CC
  17.060657 1  0               Rx   d 8 00 00 00 00 43 FE 10 FE
  17.260999 1  0               Rx   d 8 00 00 00 00 44 CC 11 32
  17.461425 1  0               Rx   d 8 00 00 00 00 45 98 11 66
  17.662180 1  0               Rx   d 8 00 00 00 00 46 66 11 98
  17.862641 1  0               Rx   d 8 00 00 00 00 47 32 11 CC
  18.063737 1  0               Rx   d 8 00 00 00 00 47 FE 11 FE
  18.264310 1  0               Rx   d 8 00 00 00 00 48 CC 12 32
  18.465286 1  0               Rx   d 8 00 00 00 00 49 98 12 66
  18.666105 1  0               Rx   d 8 00 00 00 00 4A 66 12 98
  18.867149 1  0               Rx   d 8 00 00 00 00 4B 32 12 CC
  19.067565 1  0               Rx   d 8 00 00 00 00 4C 00 13 00
  19.268397 1  0               Rx   d 8 00 00 00 00 4C CC 13 32
  19.468547 1  0               Rx   d 8 00 00 00 00 4D 98 13 66
  19.669109 1  0               Rx   d 8 00 00 00 00 4E 66 13 98
  19.869927 1  0               Rx   d 8 00 00 00 00 4F 32 13 CC
  20.070496 1  0               Rx   d 8 00 00 00 00 50 00 14 00
  20.271128 1  0               Rx   d 8 00 00 00 00 50 CC 14 32
  20.471522 1  0               Rx   d 8 00 00 00 00 51 98 14 66
  20.672562 1  0               Rx   d 8 00 00 00 00 52 66 14 98
  20.873219 1  0               Rx   d 8 00 00 00 00 53 32 14 CC
  21.073484 1  0               Rx   d 8 00 00 00 00 54 00 15 00
  21.274192 1  0               Rx   d 8 00 00 00 00 54 CC 15 32
  21.474746 1  0               Rx   d 8 00 00 00 00 55 98 15 66
  21.674944 1  0               Rx   d 8 00 00 00 00 56 66 15 98
  21.875689 1  0               Rx   d 8 00 00 00 00 57 32 15 CC
  22.076798 1  0               Rx   d 8 00 00 00 00 58 00 16 00
  22.278040 1  0               Rx   d 8 00 00 00 00 58 CC 16 32
  22.479430 1  0               Rx   d 8 00 00 00 00 59 98 16 66
  22.679827 1  0               Rx   d 8 00 00 00 00 5A 66 16 98
  22.880811 1  0               Rx   d 8 00 00 00 00 5B 32 16 CC
  23.081770 1  0               Rx   d 8 00 00 00 00 5C 00 17 00
  23.281961 1  0               Rx   d 8 00 00 00 00 5C CC 17 32
  23.482218 1  0               Rx   d 8 00 00 00 00 5D 98 17 66
  23.682829 1  0               Rx   d 8 00 00 00 00 5E 66 17 98
  23.883485 1  0               Rx   d 8 00 00 00 00 5F 32 17 CC
  24.084356 1  0               Rx   d 8 00 00 00 00 60 00 18 00
  24.285369 1  0               Rx   d 8 00 00 00 00 60 CC 16 00
  24.485694 1  0               Rx   d 8 00 00 00 00 61 98 14 00
  24.685859 1  0               Rx   d 8 00 00 00 00 62 66 12 00
  24.886357 1  0               Rx   d 8 00 00 00 00 63 32 10 00
  25.087476 1  0               Rx   d 8 00 00 00 00 64 00 0E 00
  25.287822 1  0               Rx   d 8 00 00 00 00 64 CC 0C 00
  25.488562 1  0               Rx   d 8 00 00 00 00 65 98 0A 00
  25.688999 1  0               Rx   d 8 00 00 00 00 66 66 08 00
  25.889585 1  0               Rx   d 8 00 00 00 00 67 32 06 00
  26.091147 1  0               Rx   d 8 00 00 00 00 68 00 04 00
  26.292392 1  0               Rx   d 8 00 00 00 00 68 CC 02 00
  26.492961 1  0               Rx   d 8 00 00 00 00 69 98 00 00
  26.693929 1  0               Rx   d 8 00 00 00 00 6A 66 00 32
  26.895003 1  0               Rx   d 8 00 00 00 00 6B 32 00 66
  27.095334 1  0               Rx   d 8 00 00 00 00 6C 00 00 98
  27.295680 1  0               Rx   d 8 00 00 00 00 6C CC 00 CC
  27.497172 1  0               Rx   d 8 00 00 00 00 6D 98 01 00
  27.698339 1  0               Rx   d 8 00 00 00 00 6E 66 01 32
  27.898922 1  0               Rx   d 8 00 00 00 00 6F 32 01 66
  28.099435 1  0               Rx   d 8 00 00 00 00 70 00 01 98
  28.299733 1  0               Rx   d 8 00 00 00 00 70 CC 01 CC
  28.499895 1  0               Rx   d 8 00 00 00 00 71 98 02 00
  28.700373 1  0               Rx   d 8 00 00 00 00 72 66 02 32
  28.901284 1  0               Rx   d 8 00 00 00 00 73 32 02 66
  29.102050 1  0               Rx   d 8 00 00 00 00 74 00 02 98
  29.303311 1  0               Rx   d 8 00 00 00 00 74 CC 02 CC
  29.503625 1  0               Rx   d 8 00 00 00 00 75 98 03 00
  29.703906 1  0               Rx   d 8 00 00 00 00 76 66 03 32
  29.904220 1  0               Rx   d 8 00 00 00 00 77 32 03 66
  30.104471 1  0               Rx   d 8 00 00 00 00 78 00 03 98
  30.305439 1  0               Rx   d 8 00 00 00 00 78 CC 03 CC
  30.505755 1  0               Rx   d 8 00 00 00 00 79 98 04 00
  30.706401 1  0               Rx   d 8 00 00 00 00 7A 66 04 32
  30.907561 1  0               Rx   d 8 00 00 00 00 7B 32 04 66
  31.107834 1  0               Rx   d 8 00 00 00 00 7C 00 04 98
  31.308727 1  0               Rx   d 8 00 00 00 00 7C CC 04 CC
  31.509748 1  0               Rx   d 8 00 00 00 00 7D 98 04 FE
  31.710425 1  0               Rx   d 8 00 00 00 00 7E 66 05 32
  31.910680 1  0               Rx   d 8 00 00 00 00 7F 32 05 66
  32.111808 1  0               Rx   d 8 00 00 00 00 7F FE 05 98
  32.312183 1  0               Rx   d 8 00 00 00 00 7F 32 05 CC
  32.512689 1  0               Rx   d 8 00 00 00 00 7E 66 05 FE
  32.713234 1  0               Rx   d 8 00 00 00 00 7D 98 06 32
  32.914537 1  0               Rx   d 8 00 00 00 00 7C CC 06 66
  33.114779 1  0               Rx   d 8 00 00 00 00 7B FE 06 98
  33.315177 1  0               Rx   d 8 00 00 00 00 7B 32 06 CC
  33.516145 1  0               Rx   d 8 00 00 00 00 7A 66 06 FE
  33.717179 1  0               Rx   d 8 00 00 00 00 79 98 07 32
  33.918008 1  0               Rx   d 8 00 00 00 00 78 CC 07 66
  34.118478 1  0               Rx   d 8 00 00 00 00 77 FE 07 98
  34.319173 1  0               Rx   d 8 00 00 00 00 77 32 07 CC
  34.519476 1  0               Rx   d 8 00 00 00 00 76 66 07 FE
  34.720208 1  0               Rx   d 8 00 00 00 00 75 98 08 32
  34.920661 1  0               Rx   d 8 00 00 00 00 74 CC 08 66
  35.121788 1  0               Rx   d 8 00 00 00 00 73 FE 08 98
  35.322204 1  0               Rx   d 8 00 00 00 00 73 32 08 CC
  35.523025 1  0               Rx   d 8 00 00 00 00 72 66 08 FE
  35.723694 1  0               Rx   d 8 00 00 00 00 71 98 09 32
  35.924256 1  0               Rx   d 8 00 00 00 00 70 CC 09 66
  36.125166 1  0               Rx   d 8 00 00 00 00 6F FE 09 98
  36.325455 1  0               Rx   d 8 00 00 00 00 6F 32 09 CC
  36.526130 1  0               Rx   d 8 00 00 00 00 6E 66 09 FE
  36.726660 1  0               Rx   d 8 00 00 00 00 6D 98 0A 32
  36.927031 1  0               Rx   d 8 00 00 00 00 6C CC 0A 66
  37.128202 1  0               Rx   d 8 00 00 00 00 6B FE 0A 98
  37.328463 1  0               Rx   d 8 00 00 00 00 6B 32 0A CC
  37.529261 1  0               Rx   d 8 00 00 00 00 6A 66 0A FE
  37.730042 1  0               Rx   d 8 00 00 00 00 69 98 0B 32
  37.930784 1  0               Rx   d 8 00 00 00 00 68 CC 0B 66
  38.132083 1  0               Rx   d 8 00 00 00 00 67 FE 0B 98
  38.332765 1  0               Rx   d 8 00 00 00 00 67 32 0B CC
  38.534007 1  0               Rx   d 8 00 00 00 00 66 66 0B FE
  38.735096 1  0               Rx   d 8 00 00 00 00 65 98 0C 32
  38.935972 1  0               Rx   d 8 00 00 00 00 64 CC 0C 66
  39.136999 1  0               Rx   d 8 00 00 00 00 63 FE 0C 98
  39.337463 1  0               Rx   d 8 00 00 00 00 63 32 0C CC
  39.537932 1  0               Rx   d 8 00 00 00 00 62 66 0C FE
  39.738646 1  0               Rx   d 8 00 00 00 00 61 98 0D 32
  39.939300 1  0               Rx   d 8 00 00 00 00 60 CC 0D 66
  40.139463 1  0               Rx   d 8 00 00 00 00 5F FE 0D 98
  40.339825 1  0               Rx   d 8 00 00 00 00 5F 32 0D CC
  40.540892 1  0               Rx   d 8 00 00 00 00 5E 66 0D FE
  40.742804 1  0               Rx   d 8 00 00 00 00 5D 98 0E 32
  40.943116 1  0               Rx   d 8 00 00 00 00 5C CC 0E 66
  41.143827 1  0               Rx   d 8 00 00 00 00 5B FE 0E 98
  41.344606 1  0               Rx   d 8 00 00 00 00 5B 32 0E CC
  41.545645 1  0               Rx   d 8 00 00 00 00 5A 66 0E FE
  41.746766 1  0               Rx   d 8 00 00 00 00 59 98 0F 32
  41.947757 1  0               Rx   d 8 00 00 00 00 58 CC 0F 66
  42.148907 1  0               Rx   d 8 00 00 00 00 57 FE 0F 98
  42.350038 1  0               Rx   d 8 00 00 00 00 57 32 0F CC
  42.550890 1  0               Rx   d 8 00 00 00 00 56 66 0F FE
  42.752057 1  0               Rx   d 8 00 00 00 00 55 98 10 32
  42.953446 1  0               Rx   d 8 00 00 00 00 54 CC 10 66
  43.153679 1  0               Rx   d 8 00 00 00 00 53 FE 10 98
  43.354061 1  0               Rx   d 8 00 00 00 00 53 32 10 CC
  43.555097 1  0               Rx   d 8 00 00 00 00 52 66 10 FE
  43.755339 1  0               Rx   d 8 00 00 00 00 51 98 11 32
  43.955653 1  0               Rx   d 8 00 00 00 00 50 CC 11 66
  44.156515 1  0               Rx   d 8 00 00 00 00 4F FE 11 98
  44.357275 1  0               Rx   d 8 00 00 00 00 4F 32 11 CC
  44.557752 1  0               Rx   d 8 00 00 00 00 4E 66 11 FE
  44.758675 1  0               Rx   d 8 00 00 00 00 4D 98 12 32
  44.959208 1  0               Rx   d 8 00 00 00 00 4C CC 12 66
  45.159610 1  0               Rx   d 8 00 00 00 00 4B FE 12 98
  45.359903 1  0               Rx   d 8 00 00 00 00 4B 32 12 CC
  45.560465 1  0               Rx   d 8 00 00 00 00 4A 66 13 00
  45.761617 1  0               Rx   d 8 00 00 00 00 49 98 13 32
  45.961932 1  0               Rx   d 8 00 00 00 00 48 CC 13 66
  46.162996 1  0               Rx   d 8 00 00 00 00 47 FE 13 98
  46.363493 1  0               Rx   d 8 00 00 00 00 47 32 13 CC
  46.564408 1  0               Rx   d 8 00 00 00 00 46 66 14 00
  46.765361 1  0               Rx   d 8 00 00 00 00 45 98 14 32
  46.965804 1  0               Rx   d 8 00 00 00 00 44 CC 14 66
  47.166504 1  0               Rx   d 8 00 00 00 00 43 FE 14 98
  47.367378 1  0               Rx   d 8 00 00 00 00 43 32 14 CC
  47.568797 1  0               Rx   d 8 00 00 00 00 42 66 15 00
  47.769039 1  0               Rx   d 8 00 00 00 00 41 98 15 32
  47.970066 1  0               Rx   d 8 00 00 00 00 40 CC 15 66
  48.170896 1  0               Rx   d 8 00 00 00 00 3F FE 15 98
  48.371996 1  0               Rx   d 8 00 00 00 00 3F 32 15 CC
  48.572310 1  0               Rx   d 8 00 00 00 00 3E 66 16 00
  48.773330 1  0               Rx   d 8 00 00 00 00 3D 98 16 32
  48.975218 1  0               Rx   d 8 00 00 00 00 3C CC 16 66
  49.175780 1  0               Rx   d 8 00 00 00 00 3B FE 16 98
  49.376198 1  0               Rx   d 8 00 00 00 00 3B 32 16 CC
  49.577079 1  0               Rx   d 8 00 00 00 00 3A 66 17 00
  49.778128 1  0               Rx   d 8 00 00 00 00 39 98 17 32
  49.978540 1  0               Rx   d 8 00 00 00 00 38 CC 17 66
  50.179871 1  0               Rx   d 8 00 00 00 00 37 FE 17 98
  50.380088 1  0               Rx   d 8 00 00 00 00 37 32 17 CC
  50.580846 1  0               Rx   d 8 00 00 00 00 36 66 18 00
  50.781325 1  0               Rx   d 8 00 00 00 00 35 98 16 00
  50.982477 1  0               Rx   d 8 00 00 00 00 34 CC 14 00
  51.182651 1  0               Rx   d 8 00 00 00 00 33 FE 12 00
  51.383578 1  0               Rx   d 8 00 00 00 00 33 32 10 00
  51.584095 1  0               Rx   d 8 00 00 00 00 32 66 0E 00
  51.784794 1  0               Rx   d 8 00 00 00 00 31 98 0C 00
  51.985412 1  0               Rx   d 8 00 00 00 00 30 CC 0A 00
  52.186861 1  0               Rx   d 8 00 00 00 00 2F FE 08 00
  52.387832 1  0               Rx   d 8 00 00 00 00 2F 32 06 00
  52.588288 1  0               Rx   d 8 00 00 00 00 2E 66 04 00
  52.789157 1  0               Rx   d 8 00 00 00 00 2D 98 02 00
  52.989942 1  0               Rx   d 8 00 00 00 00 2C CC 00 00
  53.190327 1  0               Rx   d 8 00 00 00 00 2B FE 00 32
  53.391588 1  0               Rx   d 8 00 00 00 00 2B 32 00 66
  53.592249 1  0               Rx   d 8 00 00 00 00 2A 66 00 98
  53.792386 1  0               Rx   d 8 00 00 00 00 29 98 00 CC
  53.992968 1  0               Rx   d 8 00 00 00 00 28 CC 01 00
  54.193367 1  0               Rx   d 8 00 00 00 00 27 FE 01 32
  54.394716 1  0               Rx   d 8 00 00 00 00 27 32 01 66
  54.595105 1  0               Rx   d 8 00 00 00 00 26 66 01 98
  54.795731 1  0               Rx   d 8 00 00 00 00 25 98 01 CC
  54.996284 1  0               Rx   d 8 00 00 00 00 24 CC 02 00
  55.197576 1  0               Rx   d 8 00 00 00 00 23 FE 02 32
  55.398054 1  0               Rx   d 8 00 00 00 00 23 32 02 66
  55.598364 1  0               Rx   d 8 00 00 00 00 22 66 02 98
  55.798965 1  0               Rx   d 8 00 00 00 00 21 98 02 CC
  55.999265 1  0               Rx   d 8 00 00 00 00 20 CC 03 00
  56.199561 1  0               Rx   d 8 00 00 00 00 1F FE 03 32
  56.400268 1  0               Rx   d 8 00 00 00 00 1F 32 03 66
  56.601059 1  0               Rx   d 8 00 00 00 00 1E 66 03 98
  56.801284 1  0               Rx   d 8 00 00 00 00 1D 98 03 CC
  57.002356 1  0               Rx   d 8 00 00 00 00 1C CC 04 00
  57.202816 1  0               Rx   d 8 00 00 00 00 1B FE 04 32
  57.404465 1  0               Rx   d 8 00 00 00 00 1B 32 04 66
  57.604978 1  0               Rx   d 8 00 00 00 00 1A 66 04 98
  57.805539 1  0               Rx   d 8 00 00 00 00 19 98 04 CC
  58.006555 1  0               Rx   d 8 00 00 00 00 18 CC 04 FE
  58.207292 1  0               Rx   d 8 00 00 00 00 17 FE 05 32
  58.407613 1  0               Rx   d 8 00 00 00 00 17 32 05 66
  58.607932 1  0               Rx   d 8 00 00 00 00 16 66 05 98
  58.808839 1  0               Rx   d 8 00 00 00 00 15 98 05 CC
  59.009580 1  0               Rx   d 8 00 00 00 00 14 CC 05 FE
  59.210003 1  0               Rx   d 8 00 00 00 00 13 FE 06 32
  59.410177 1  0               Rx   d 8 00 00 00 00 13 32 06 66
  59.610613 1  0               Rx   d 8 00 00 00 00 12 66 06 98
  59.811194 1  0               Rx   d 8 00 00 00 00 11 98 06 CC
  60.012120 1  0               Rx   d 8 00 00 00 00 10 CC 06 FE
  60.212784 1  0               Rx   d 8 00 00 00 00 0F FE 07 32
  60.413841 1  0               Rx   d 8 00 00 00 00 0F 32 07 66
  60.614435 1  0               Rx   d 8 00 00 00 00 0E 66 07 98
  60.815231 1  0               Rx   d 8 00 00 00 00 0D 98 07 CC
  61.015910 1  0               Rx   d 8 00 00 00 00 0C CC 07 FE
  61.216506 1  0               Rx   d 8 00 00 00 00 0B FE 08 32
  61.416722 1  0               Rx   d 8 00 00 00 00 0B 32 08 66
  61.617300 1  0               Rx   d 8 00 00 00 00 0A 66 08 98
  61.817810 1  0               Rx   d 8 00 00 00 00 09 98 08 CC
  62.018343 1  0               Rx   d 8 00 00 00 00 08 CC 08 FE
  62.218622 1  0               Rx   d 8 00 00 00 00 07 FE 09 32
  62.419551 1  0               Rx   d 8 00 00 00 00 07 32 09 66
  62.620102 1  0               Rx   d 8 00 00 00 00 06 66 09 98
  62.821311 1  0               Rx   d 8 00 00 00 00 05 98 09 CC
  63.021686 1  0               Rx   d 8 00 00 00 00 04 CC 09 FE
  63.222351 1  0               Rx   d 8 00 00 00 00 03 FE 0A 32
  63.422926 1  0               Rx   d 8 00 00 00 00 03 32 0A 66
  63.623731 1  0               Rx   d 8 00 00 00 00 02 66 0A 98
  63.824543 1  0               Rx   d 8 00 00 00 00 01 98 0A CC
  64.025549 1  0               Rx   d 8 00 00 00 00 00 CC 0A FE
  64.226680 1  0               Rx   d 8 00 00 00 00 00 00 0B 32
  64.427567 1  0               Rx   d 8 00 00 00 00 FF 34 0B 66
  64.628603 1  0               Rx   d 8 00 00 00 00 FE 68 0B 98
  64.829281 1  0               Rx   d 8 00 00 00 00 FD 9A 0B CC
  65.029458 1  0               Rx   d 8 00 00 00 00 FC CE 0B FE
  65.230602 1  0               Rx   d 8 00 00 00 00 FC 00 0C 32
  65.431146 1  0               Rx   d 8 00 00 00 00 FB 34 0C 66
  65.631565 1  0               Rx   d 8 00 00 00 00 FA 68 0C 98
  65.832193 1  0               Rx   d 8 00 00 00 00 F9 9A 0C CC
  66.033275 1  0               Rx   d 8 00 00 00 00 F8 CE 0C FE
  66.233478 1  0               Rx   d 8 00 00 00 00 F8 00 0D 32
  66.433824 1  0               Rx   d 8 00 00 00 00 F7 34 0D 66
  66.634036 1  0               Rx   d 8 00 00 00 00 F6 68 0D 98
  66.834443 1  0               Rx   d 8 00 00 00 00 F5 9A 0D CC
  67.035303 1  0               Rx   d 8 00 00 00 00 F4 CE 0D FE
  67.235911 1  0               Rx   d 8 00 00 00 00 F4 00 0E 32
  67.436246 1  0               Rx   d 8 00 00 00 00 F3 34 0E 66
  67.636459 1  0               Rx   d 8 00 00 00 00 F2 68 0E 98
  67.837559 1  0               Rx   d 8 00 00 00 00 F1 9A 0E CC
  68.038290 1  0               Rx   d 8 00 00 00 00 F0 CE 0E FE
  68.239218 1  0               Rx   d 8 00 00 00 00 F0 00 0F 32
  68.439848 1  0               Rx   d 8 00 00 00 00 EF 34 0F 66
  68.640949 1  0               Rx   d 8 00 00 00 00 EE 68 0F 98
  68.841707 1  0               Rx   d 8 00 00 00 00 ED 9A 0F CC
  69.042367 1  0               Rx   d 8 00 00 00 00 EC CE 0F FE
  69.242794 1  0               Rx   d 8 00 00 00 00 EC 00 10 32
  69.444186 1  0               Rx   d 8 00 00 00 00 EB 34 10 66
  69.645299 1  0               Rx   d 8 00 00 00 00 EA 68 10 98
  69.845907 1  0               Rx   d 8 00 00 00 00 E9 9A 10 CC
  70.046190 1  0               Rx   d 8 00 00 00 00 E8 CE 10 FE
  70.247387 1  0               Rx   d 8 00 00 00 00 E8 00 11 32
  70.448524 1  0               Rx   d 8 00 00 00 00 E7 34 11 66
  70.649526 1  0               Rx   d 8 00 00 00 00 E6 68 11 98
  70.850244 1  0               Rx   d 8 00 00 00 00 E5 9A 11 CC
  71.050608 1  0               Rx   d 8 00 00 00 00 E4 CE 11 FE
  71.250850 1  0               Rx   d 8 00 00 00 00 E4 00 12 32
  71.451347 1  0               Rx   d 8 00 00 00 00 E3 34 12 66
  71.652633 1  0               Rx   d 8 00 00 00 00 E2 68 12 98
  71.853189 1  0               Rx   d 8 00 00 00 00 E1 9A 12 CC
  72.053983 1  0               Rx   d 8 00 00 00 00 E0 CE 13 00
  72.254639 1  0               Rx   d 8 00 00 00 00 E0 00 13 32
  72.455122 1  0               Rx   d 8 00 00 00 00 DF 34 13 66
  72.655692 1  0               Rx   d 8 00 00 00 00 DE 68 13 98
  72.856575 1  0               Rx   d 8 00 00 00 00 DD 9A 13 CC
  73.057111 1  0               Rx   d 8 00 00 00 00 DC CE 14 00
  73.257433 1  0               Rx   d 8 00 00 00 00 DC 00 14 32
  73.458035 1  0               Rx   d 8 00 00 00 00 DB 34 14 66
  73.658563 1  0               Rx   d 8 00 00 00 00 DA 68 14 98
  73.858949 1  0               Rx   d 8 00 00 00 00 D9 9A 14 CC
  74.059429 1  0               Rx   d 8 00 00 00 00 D8 CE 15 00
  74.259956 1  0               Rx   d 8 00 00 00 00 D8 00 15 32
  74.460450 1  0               Rx   d 8 00 00 00 00 D7 34 15 66
  74.661020 1  0               Rx   d 8 00 00 00 00 D6 68 15 98
  74.861275 1  0               Rx   d 8 00 00 00 00 D5 9A 15 CC
  75.061860 1  0               Rx   d 8 00 00 00 00 D4 CE 16 00
  75.262959 1  0               Rx   d 8 00 00 00 00 D4 00 16 32
  75.463897 1  0               Rx   d 8 00 00 00 00 D3 34 16 66
  75.664448 1  0               Rx   d 8 00 00 00 00 D2 68 16 98
  75.864638 1  0               Rx   d 8 00 00 00 00 D1 9A 16 CC
  76.065108 1  0               Rx   d 8 00 00 00 00 D0 CE 17 00
  76.265941 1  0               Rx   d 8 00 00 00 00 D0 00 17 32
  76.466668 1  0               Rx   d 8 00 00 00 00 CF 34 17 66
  76.667414 1  0               Rx   d 8 00 00 00 00 CE 68 17 98
  76.867975 1  0               Rx   d 8 00 00 00 00 CD 9A 17 CC
  77.068637 1  0               Rx   d 8 00 00 00 00 CC CE 18 00
  77.269838 1  0               Rx   d 8 00 00 00 00 CC 00 16 00
  77.471315 1  0               Rx   d 8 00 00 00 00 CB 34 14 00
  77.672213 1  0               Rx   d 8 00 00 00 00 CA 68 12 00
  77.873438 1  0               Rx   d 8 00 00 00 00 C9 9A 10 00
  78.073784 1  0               Rx   d 8 00 00 00 00 C8 CE 0E 00
  78.274128 1  0               Rx   d 8 00 00 00 00 C8 00 0C 00
  78.474507 1  0               Rx   d 8 00 00 00 00 C7 34 0A 00
  78.674821 1  0               Rx   d 8 00 00 00 00 C6 68 08 00
  78.876104 1  0               Rx   d 8 00 00 00 00 C5 9A 06 00
  79.076896 1  0               Rx   d 8 00 00 00 00 C4 CE 04 00
  79.277801 1  0               Rx   d 8 00 00 00 00 C4 00 02 00
  79.478570 1  0               Rx   d 8 00 00 00 00 C3 34 00 00
  79.679197 1  0               Rx   d 8 00 00 00 00 C2 68 00 32
  79.880361 1  0               Rx   d 8 00 00 00 00 C1 9A 00 66
  80.080813 1  0               Rx   d 8 00 00 00 00 C0 CE 00 98
  80.281318 1  0               Rx   d 8 00 00 00 00 C0 00 00 CC
  80.482751 1  0               Rx   d 8 00 00 00 00 BF 34 01 00
  80.682954 1  0               Rx   d 8 00 00 00 00 BE 68 01 32
  80.883925 1  0               Rx   d 8 00 00 00 00 BD 9A 01 66
  81.084430 1  0               Rx   d 8 00 00 00 00 BC CE 01 98
  81.285344 1  0               Rx   d 8 00 00 00 00 BC 00 01 CC
  81.485800 1  0               Rx   d 8 00 00 00 00 BB 34 02 00
  81.686289 1  0               Rx   d 8 00 00 00 00 BA 68 02 32
  81.887113 1  0               Rx   d 8 00 00 00 00 B9 9A 02 66
  82.088359 1  0               Rx   d 8 00 00 00 00 B8 CE 02 98
  82.288829 1  0               Rx   d 8 00 00 00 00 B8 00 02 CC
  82.490045 1  0               Rx   d 8 00 00 00 00 B7 34 03 00
  82.690540 1  0               Rx   d 8 00 00 00 00 B6 68 03 32
  82.890872 1  0               Rx   d 8 00 00 00 00 B5 9A 03 66
  83.091725 1  0               Rx   d 8 00 00 00 00 B4 CE 03 98
  83.292335 1  0               Rx   d 8 00 00 00 00 B4 00 03 CC
  83.493168 1  0               Rx   d 8 00 00 00 00 B3 34 04 00
  83.694457 1  0               Rx   d 8 00 00 00 00 B2 68 04 32
  83.894713 1  0               Rx   d 8 00 00 00 00 B1 9A 04 66
  84.095654 1  0               Rx   d 8 00 00 00 00 B0 CE 04 98
  84.296759 1  0               Rx   d 8 00 00 00 00 B0 00 04 CC
  84.497565 1  0               Rx   d 8 00 00 00 00 AF 34 04 FE
  84.697811 1  0               Rx   d 8 00 00 00 00 AE 68 05 32
  84.898319 1  0               Rx   d 8 00 00 00 00 AD 9A 05 66
  85.099139 1  0               Rx   d 8 00 00 00 00 AC CE 05 98
  85.299414 1  0               Rx   d 8 00 00 00 00 AC 00 05 CC
  85.500064 1  0               Rx   d 8 00 00 00 00 AB 34 05 FE
  85.700760 1  0               Rx   d 8 00 00 00 00 AA 68 06 32
  85.901271 1  0               Rx   d 8 00 00 00 00 A9 9A 06 66
  86.102122 1  0               Rx   d 8 00 00 00 00 A8 CE 06 98
  86.303033 1  0               Rx   d 8 00 00 00 00 A8 00 06 CC
  86.504461 1  0               Rx   d 8 00 00 00 00 A7 34 06 FE
  86.705469 1  0               Rx   d 8 00 00 00 00 A6 68 07 32
  86.906178 1  0               Rx   d 8 00 00 00 00 A5 9A 07 66
  87.106475 1  0               Rx   d 8 00 00 00 00 A4 CE 07 98
  87.307347 1  0               Rx   d 8 00 00 00 00 A4 00 07 CC
  87.507818 1  0               Rx   d 8 00 00 00 00 A3 34 07 FE
  87.708986 1  0               Rx   d 8 00 00 00 00 A2 68 08 32
  87.909492 1  0               Rx   d 8 00 00 00 00 A1 9A 08 66
  88.110633 1  0               Rx   d 8 00 00 00 00 A0 CE 08 98
  88.311199 1  0               Rx   d 8 00 00 00 00 A0 00 08 CC
  88.512430 1  0               Rx   d 8 00 00 00 00 9F 34 08 FE
  88.713268 1  0               Rx   d 8 00 00 00 00 9E 68 09 32
  88.913936 1  0               Rx   d 8 00 00 00 00 9D 9A 09 66
  89.115265 1  0               Rx   d 8 00 00 00 00 9C CE 09 98
  89.316255 1  0               Rx   d 8 00 00 00 00 9C 00 09 CC
  89.516812 1  0               Rx   d 8 00 00 00 00 9B 34 09 FE
  89.717160 1  0               Rx   d 8 00 00 00 00 9A 68 0A 32
  89.918334 1  0               Rx   d 8 00 00 00 00 99 9A 0A 66
  90.119362 1  0               Rx   d 8 00 00 00 00 98 CE 0A 98
  90.319783 1  0               Rx   d 8 00 00 00 00 98 00 0A CC
  90.520010 1  0               Rx   d 8 00 00 00 00 97 34 0A FE
  90.720804 1  0               Rx   d 8 00 00 00 00 96 68 0B 32
  90.921045 1  0               Rx   d 8 00 00 00 00 95 9A 0B 66
  91.122521 1  0               Rx   d 8 00 00 00 00 94 CE 0B 98
  91.323248 1  0               Rx   d 8 00 00 00 00 94 00 0B CC
  91.523740 1  0               Rx   d 8 00 00 00 00 93 34 0B FE
  91.724270 1  0               Rx   d 8 00 00 00 00 92 68 0C 32
  91.924495 1  0               Rx   d 8 00 00 00 00 91 9A 0C 66
  92.125094 1  0               Rx   d 8 00 00 00 00 90 CE 0C 98
  92.325463 1  0               Rx   d 8 00 00 00 00 90 00 0C CC
  92.526589 1  0               Rx   d 8 00 00 00 00 8F 34 0C FE
  92.727359 1  0               Rx   d 8 00 00 00 00 8E 68 0D 32
  92.927951 1  0               Rx   d 8 00 00 00 00 8D 9A 0D 66
  93.128612 1  0               Rx   d 8 00 00 00 00 8C CE 0D 98
  93.329125 1  0               Rx   d 8 00 00 00 00 8C 00 0D CC
  93.529656 1  0               Rx   d 8 00 00 00 00 8B 34 0D FE
  93.729954 1  0               Rx   d 8 00 00 00 00 8A 68 0E 32
  93.930485 1  0               Rx   d 8 00 00 00 00 89 9A 0E 66
  94.131667 1  0               Rx   d 8 00 00 00 00 88 CE 0E 98
  94.332592 1  0               Rx   d 8 00 00 00 00 88 00 0E CC
  94.534376 1  0               Rx   d 8 00 00 00 00 87 34 0E FE
  94.735010 1  0               Rx   d 8 00 00 00 00 86 68 0F 32
  94.935150 1  0               Rx   d 8 00 00 00 00 85 9A 0F 66
  95.136367 1  0               Rx   d 8 00 00 00 00 84 CE 0F 98
  95.336759 1  0               Rx   d 8 00 00 00 00 84 00 0F CC
  95.538112 1  0               Rx   d 8 00 00 00 00 83 34 0F FE
  95.738250 1  0               Rx   d 8 00 00 00 00 82 68 10 32
  95.938448 1  0               Rx   d 8 00 00 00 00 81 9A 10 66
  96.138702 1  0               Rx   d 8 00 00 00 00 80 CE 10 98
  96.339017 1  0               Rx   d 8 00 00 00 00 80 00 10 CC
  96.539273 1  0               Rx   d 8 00 00 00 00 80 CE 10 FE
  96.739667 1  0               Rx   d 8 00 00 00 00 81 9A 11 32
  96.940239 1  0               Rx   d 8 00 00 00 00 82 68 11 66
  97.141181 1  0               Rx   d 8 00 00 00 00 83 34 11 98
  97.341565 1  0               Rx   d 8 00 00 00 00 84 02 11 CC
  97.542252 1  0               Rx   d 8 00 00 00 00 84 CE 11 FE
  97.743455 1  0               Rx   d 8 00 00 00 00 85 9A 12 32
  97.944065 1  0               Rx   d 8 00 00 00 00 86 68 12 66
  98.144313 1  0               Rx   d 8 00 00 00 00 87 34 12 98
  98.345247 1  0               Rx   d 8 00 00 00 00 88 02 12 CC
  98.545510 1  0               Rx   d 8 00 00 00 00 88 CE 13 00
  98.746514 1  0               Rx   d 8 00 00 00 00 89 9A 13 32
  98.946817 1  0               Rx   d 8 00 00 00 00 8A 68 13 66
  99.147276 1  0               Rx   d 8 00 00 00 00 8B 34 13 98
  99.348008 1  0               Rx   d 8 00 00 00 00 8C 02 13 CC
  99.548748 1  0               Rx   d 8 00 00 00 00 8C CE 14 00
  99.749477 1  0               Rx   d 8 00 00 00 00 8D 9A 14 32
  99.950542 1  0               Rx   d 8 00 00 00 00 8E 68 14 66
 100.150895 1  0               Rx   d 8 00 00 00 00 8F 34 14 98
 100.351372 1  0               Rx   d 8 00 00 00 00 90 02 14 CC
 100.551608 1  0               Rx   d 8 00 00 00 00 90 CE 15 00
 100.751884 1  0               Rx   d 8 00 00 00 00 91 9A 15 32
 100.953095 1  0               Rx   d 8 00 00 00 00 92 68 15 66
 101.154105 1  0               Rx   d 8 00 00 00 00 93 34 15 98
 101.355479 1  0               Rx   d 8 00 00 00 00 94 02 15 CC
 101.556655 1  0               Rx   d 8 00 00 00 00 94 CE 16 00
 101.758337 1  0               Rx   d 8 00 00 00 00 95 9A 16 32
 101.959398 1  0               Rx   d 8 00 00 00 00 96 68 16 66
 102.160166 1  0               Rx   d 8 00 00 00 00 97 34 16 98
 102.361893 1  0               Rx   d 8 00 00 00 00 98 02 16 CC
 102.562712 1  0               Rx   d 8 00 00 00 00 98 CE 17 00
 102.763470 1  0               Rx   d 8 00 00 00 00 99 9A 17 32
 102.964242 1  0               Rx   d 8 00 00 00 00 9A 68 17 66
 103.164462 1  0               Rx   d 8 00 00 00 00 9B 34 17 98
 103.365670 1  0               Rx   d 8 00 00 00 00 9C 02 17 CC
 103.566984 1  0               Rx   d 8 00 00 00 00 9C CE 18 00
 103.767491 1  0               Rx   d 8 00 00 00 00 9D 9A 16 00
 103.968187 1  0               Rx   d 8 00 00 00 00 9E 68 14 00
 104.169019 1  0               Rx   d 8 00 00 00 00 9F 34 12 00
 104.369584 1  0               Rx   d 8 00 00 00 00 A0 02 10 00
 104.570622 1  0               Rx   d 8 00 00 00 00 A0 CE 0E 00
 104.770875 1  0               Rx   d 8 00 00 00 00 A1 9A 0C 00
 104.971893 1  0               Rx   d 8 00 00 00 00 A2 68 0A 00
 105.172481 1  0               Rx   d 8 00 00 00 00 A3 34 08 00
 105.373330 1  0               Rx   d 8 00 00 00 00 A4 02 06 00
 105.573806 1  0               Rx   d 8 00 00 00 00 A4 CE 04 00
 105.774099 1  0               Rx   d 8 00 00 00 00 A5 9A 02 00
 105.974447 1  0               Rx   d 8 00 00 00 00 A6 68 00 00
 106.175002 1  0               Rx   d 8 00 00 00 00 A7 34 00 32
 106.375492 1  0               Rx   d 8 00 00 00 00 A8 02 00 66
 106.576183 1  0               Rx   d 8 00 00 00 00 A8 CE 00 98
 106.776593 1  0               Rx   d 8 00 00 00 00 A9 9A 00 CC
 106.977149 1  0               Rx   d 8 00 00 00 00 AA 68 01 00
 107.177741 1  0               Rx   d 8 00 00 00 00 AB 34 01 32
 107.378029 1  0               Rx   d 8 00 00 00 00 AC 02 01 66
 107.578972 1  0               Rx   d 8 00 00 00 00 AC CE 01 98
 107.779803 1  0               Rx   d 8 00 00 00 00 AD 9A 01 CC
 107.980027 1  0               Rx   d 8 00 00 00 00 AE 68 02 00
 108.180959 1  0               Rx   d 8 00 00 00 00 AF 34 02 32
 108.381257 1  0               Rx   d 8 00 00 00 00 B0 02 02 66
 108.581572 1  0               Rx   d 8 00 00 00 00 B0 CE 02 98
 108.782674 1  0               Rx   d 8 00 00 00 00 B1 9A 02 CC
 108.983284 1  0               Rx   d 8 00 00 00 00 B2 68 03 00
 109.184365 1  0               Rx   d 8 00 00 00 00 B3 34 03 32
 109.385521 1  0               Rx   d 8 00 00 00 00 B4 02 03 66
 109.586636 1  0               Rx   d 8 00 00 00 00 B4 CE 03 98
 109.787259 1  0               Rx   d 8 00 00 00 00 B5 9A 03 CC
 109.988178 1  0               Rx   d 8 00 00 00 00 B6 68 04 00
 110.189275 1  0               Rx   d 8 00 00 00 00 B7 34 04 32
 110.389596 1  0               Rx   d 8 00 00 00 00 B8 02 04 66
 110.590122 1  0               Rx   d 8 00 00 00 00 B8 CE 04 98
 110.791196 1  0               Rx   d 8 00 00 00 00 B9 9A 04 CC
 110.991450 1  0               Rx   d 8 00 00 00 00 BA 68 04 FE
 111.192134 1  0               Rx   d 8 00 00 00 00 BB 34 05 32
 111.392307 1  0               Rx   d 8 00 00 00 00 BC 02 05 66
 111.593039 1  0               Rx   d 8 00 00 00 00 BC CE 05 98
 111.793374 1  0               Rx   d 8 00 00 00 00 BD 9A 05 CC
 111.994395 1  0               Rx   d 8 00 00 00 00 BE 68 05 FE
 112.194655 1  0               Rx   d 8 00 00 00 00 BF 34 06 32
 112.395403 1  0               Rx   d 8 00 00 00 00 C0 02 06 66
 112.596067 1  0               Rx   d 8 00 00 00 00 C0 CE 06 98
 112.797115 1  0               Rx   d 8 00 00 00 00 C1 9A 06 CC
 112.998086 1  0               Rx   d 8 00 00 00 00 C2 68 06 FE
 113.198865 1  0               Rx   d 8 00 00 00 00 C3 34 07 32
 113.400050 1  0               Rx   d 8 00 00 00 00 C4 02 07 66
 113.600803 1  0               Rx   d 8 00 00 00 00 C4 CE 07 98
 113.801155 1  0               Rx   d 8 00 00 00 00 C5 9A 07 CC
 114.001391 1  0               Rx   d 8 00 00 00 00 C6 68 07 FE
 114.201901 1  0               Rx   d 8 00 00 00 00 C7 34 08 32
 114.402790 1  0               Rx   d 8 00 00 00 00 C8 02 08 66
 114.603954 1  0               Rx   d 8 00 00 00 00 C8 CE 08 98
 114.804511 1  0               Rx   d 8 00 00 00 00 C9 9A 08 CC
 115.005461 1  0               Rx   d 8 00 00 00 00 CA 68 08 FE
 115.205821 1  0               Rx   d 8 00 00 00 00 CB 34 09 32
 115.406250 1  0               Rx   d 8 00 00 00 00 CC 02 09 66
 115.607421 1  0               Rx   d 8 00 00 00 00 CC CE 09 98
 115.808089 1  0               Rx   d 8 00 00 00 00 CD 9A 09 CC
 116.009056 1  0               Rx   d 8 00 00 00 00 CE 68 09 FE
 116.209651 1  0               Rx   d 8 00 00 00 00 CF 34 0A 32
 116.410167 1  0               Rx   d 8 00 00 00 00 D0 02 0A 66
 116.611063 1  0               Rx   d 8 00 00 00 00 D0 CE 0A 98
 116.811256 1  0               Rx   d 8 00 00 00 00 D1 9A 0A CC
 117.012597 1  0               Rx   d 8 00 00 00 00 D2 68 0A FE
 117.213027 1  0               Rx   d 8 00 00 00 00 D3 34 0B 32
 117.413256 1  0               Rx   d 8 00 00 00 00 D4 02 0B 66
 117.614268 1  0               Rx   d 8 00 00 00 00 D4 CE 0B 98
 117.814815 1  0               Rx   d 8 00 00 00 00 D5 9A 0B CC
 118.015806 1  0               Rx   d 8 00 00 00 00 D6 68 0B FE
 118.216912 1  0               Rx   d 8 00 00 00 00 D7 34 0C 32
 118.418089 1  0               Rx   d 8 00 00 00 00 D8 02 0C 66
 118.618550 1  0               Rx   d 8 00 00 00 00 D8 CE 0C 98
 118.818990 1  0               Rx   d 8 00 00 00 00 D9 9A 0C CC
 119.019524 1  0               Rx   d 8 00 00 00 00 DA 68 0C FE
 119.220232 1  0               Rx   d 8 00 00 00 00 DB 34 0D 32
 119.420674 1  0               Rx   d 8 00 00 00 00 DC 02 0D 66
 119.621843 1  0               Rx   d 8 00 00 00 00 DC CE 0D 98
 119.822228 1  0               Rx   d 8 00 00 00 00 DD 9A 0D CC
 120.022790 1  0               Rx   d 8 00 00 00 00 DE 68 0D FE
 120.223192 1  0               Rx   d 8 00 00 00 00 DF 34 0E 32
 120.423809 1  0               Rx   d 8 00 00 00 00 E0 02 0E 66
 120.624120 1  0               Rx   d 8 00 00 00 00 E0 CE 0E 98
 120.824613 1  0               Rx   d 8 00 00 00 00 E1 9A 0E CC
 121.025275 1  0               Rx   d 8 00 00 00 00 E2 68 0E FE
 121.226319 1  0               Rx   d 8 00 00 00 00 E3 34 0F 32
 121.426558 1  0               Rx   d 8 00 00 00 00 E4 02 0F 66
 121.626928 1  0               Rx   d 8 00 00 00 00 E4 CE 0F 98
 121.828060 1  0               Rx   d 8 00 00 00 00 E5 9A 0F CC
 122.028432 1  0               Rx   d 8 00 00 00 00 E6 68 0F FE
 122.229625 1  0               Rx   d 8 00 00 00 00 E7 34 10 32
 122.430282 1  0               Rx   d 8 00 00 00 00 E8 02 10 66
 122.631873 1  0               Rx   d 8 00 00 00 00 E8 CE 10 98
 122.832576 1  0               Rx   d 8 00 00 00 00 E9 9A 10 CC
 123.033001 1  0               Rx   d 8 00 00 00 00 EA 68 10 FE
 123.234495 1  0               Rx   d 8 00 00 00 00 EB 34 11 32
 123.435161 1  0               Rx   d 8 00 00 00 00 EC 02 11 66
 123.635467 1  0               Rx   d 8 00 00 00 00 EC CE 11 98
 123.835958 1  0               Rx   d 8 00 00 00 00 ED 9A 11 CC
 124.036727 1  0               Rx   d 8 00 00 00 00 EE 68 11 FE
 124.237496 1  0               Rx   d 8 00 00 00 00 EF 34 12 32
 124.438549 1  0               Rx   d 8 00 00 00 00 F0 02 12 66
 124.639374 1  0               Rx   d 8 00 00 00 00 F0 CE 12 98
 124.840097 1  0               Rx   d 8 00 00 00 00 F1 9A 12 CC
 125.041013 1  0               Rx   d 8 00 00 00 00 F2 68 13 00
 125.241904 1  0               Rx   d 8 00 00 00 00 F3 34 13 32
 125.442917 1  0               Rx   d 8 00 00 00 00 F4 02 13 66
 125.643483 1  0               Rx   d 8 00 00 00 00 F4 CE 13 98
 125.843622 1  0               Rx   d 8 00 00 00 00 F5 9A 13 CC
 126.044017 1  0               Rx   d 8 00 00 00 00 F6 68 14 00
 126.244416 1  0               Rx   d 8 00 00 00 00 F7 34 14 32
 126.445959 1  0               Rx   d 8 00 00 00 00 F8 02 14 66
 126.646576 1  0               Rx   d 8 00 00 00 00 F8 CE 14 98
 126.847412 1  0               Rx   d 8 00 00 00 00 F9 9A 14 CC
 127.048014 1  0               Rx   d 8 00 00 00 00 FA 68 15 00
 127.248629 1  0               Rx   d 8 00 00 00 00 FB 34 15 32
 127.449846 1  0               Rx   d 8 00 00 00 00 FC 02 15 66
 127.650202 1  0               Rx   d 8 00 00 00 00 FC CE 15 98
 127.851016 1  0               Rx   d 8 00 00 00 00 FD 9A 15 CC
 128.051902 1  0               Rx   d 8 00 00 00 00 FE 68 16 00
 128.252600 1  0               Rx   d 8 00 00 00 00 FF 34 16 32
 128.453022 1  0               Rx   d 8 00 00 00 00 00 00 16 66
 128.654185 1  0               Rx   d 8 00 00 00 00 00 CC 16 98
 128.854959 1  0               Rx   d 8 00 00 00 00 01 98 16 CC
 129.055530 1  0               Rx   d 8 00 00 00 00 02 66 17 00
 129.256566 1  0               Rx   d 8 00 00 00 00 03 32 17 32
 129.457080 1  0               Rx   d 8 00 00 00 00 04 00 17 66
 129.657467 1  0               Rx   d 8 00 00 00 00 04 CC 17 98
 129.857955 1  0               Rx   d 8 00 00 00 00 05 98 17 CC
 130.059113 1  0               Rx   d 8 00 00 00 00 06 66 18 00
 130.259252 1  0               Rx   d 8 00 00 00 00 07 32 16 00
 130.459873 1  0               Rx   d 8 00 00 00 00 08 00 14 00
 130.660599 1  0               Rx   d 8 00 00 00 00 08 CC 12 00
 130.861485 1  0               Rx   d 8 00 00 00 00 09 98 10 00
 131.062073 1  0               Rx   d 8 00 00 00 00 0A 66 0E 00
 131.262526 1  0               Rx   d 8 00 00 00 00 0B 32 0C 00
 131.462733 1  0               Rx   d 8 00 00 00 00 0C 00 0A 00
 131.663177 1  0               Rx   d 8 00 00 00 00 0C CC 08 00
 131.863776 1  0               Rx   d 8 00 00 00 00 0D 98 06 00
 132.064142 1  0               Rx   d 8 00 00 00 00 0E 66 04 00
 132.264373 1  0               Rx   d 8 00 00 00 00 0F 32 02 00
 132.464682 1  0               Rx   d 8 00 00 00 00 10 00 00 00
 132.665303 1  0               Rx   d 8 00 00 00 00 10 CC 00 32
 132.866158 1  0               Rx   d 8 00 00 00 00 11 98 00 66
 133.067404 1  0               Rx   d 8 00 00 00 00 12 66 00 98
 133.267706 1  0               Rx   d 8 00 00 00 00 13 32 00 CC
 133.468282 1  0               Rx   d 8 00 00 00 00 14 00 01 00
 133.668586 1  0               Rx   d 8 00 00 00 00 14 CC 01 32
 133.869893 1  0               Rx   d 8 00 00 00 00 15 98 01 66
 134.071618 1  0               Rx   d 8 00 00 00 00 16 66 01 98
 134.271874 1  0               Rx   d 8 00 00 00 00 17 32 01 CC
 134.472741 1  0               Rx   d 8 00 00 00 00 18 00 02 00
 134.673589 1  0               Rx   d 8 00 00 00 00 18 CC 02 32
 134.873876 1  0               Rx   d 8 00 00 00 00 19 98 02 66
 135.074141 1  0               Rx   d 8 00 00 00 00 1A 66 02 98
 135.275159 1  0               Rx   d 8 00 00 00 00 1B 32 02 CC
 135.475463 1  0               Rx   d 8 00 00 00 00 1C 00 03 00
 135.676395 1  0               Rx   d 8 00 00 00 00 1C CC 03 32
 135.876701 1  0               Rx   d 8 00 00 00 00 1D 98 03 66
 136.077738 1  0               Rx   d 8 00 00 00 00 1E 66 03 98
 136.278293 1  0               Rx   d 8 00 00 00 00 1F 32 03 CC
 136.479223 1  0               Rx   d 8 00 00 00 00 20 00 04 00
 136.680161 1  0               Rx   d 8 00 00 00 00 20 CC 04 32
 136.881016 1  0               Rx   d 8 00 00 00 00 21 98 04 66
 137.081840 1  0               Rx   d 8 00 00 00 00 22 66 04 98
 137.282072 1  0               Rx   d 8 00 00 00 00 23 32 04 CC
 137.482806 1  0               Rx   d 8 00 00 00 00 24 00 04 FE
 137.683252 1  0               Rx   d 8 00 00 00 00 24 CC 05 32
 137.884308 1  0               Rx   d 8 00 00 00 00 25 98 05 66
 138.085017 1  0               Rx   d 8 00 00 00 00 26 66 05 98
 138.285723 1  0               Rx   d 8 00 00 00 00 27 32 05 CC
 138.486456 1  0               Rx   d 8 00 00 00 00 28 00 05 FE
 138.686668 1  0               Rx   d 8 00 00 00 00 28 CC 06 32
 138.887913 1  0               Rx   d 8 00 00 00 00 29 98 06 66
 139.088562 1  0               Rx   d 8 00 00 00 00 2A 66 06 98
 139.289008 1  0               Rx   d 8 00 00 00 00 2B 32 06 CC
 139.489823 1  0               Rx   d 8 00 00 00 00 2C 00 06 FE
 139.690118 1  0               Rx   d 8 00 00 00 00 2C CC 07 32
 139.890810 1  0               Rx   d 8 00 00 00 00 2D 98 07 66
 140.091141 1  0               Rx   d 8 00 00 00 00 2E 66 07 98
 140.291975 1  0               Rx   d 8 00 00 00 00 2F 32 07 CC
 140.492297 1  0               Rx   d 8 00 00 00 00 30 00 07 FE
 140.692478 1  0               Rx   d 8 00 00 00 00 30 CC 08 32
 140.892742 1  0               Rx   d 8 00 00 00 00 31 98 08 66
 141.093225 1  0               Rx   d 8 00 00 00 00 32 66 08 98
 141.293667 1  0               Rx   d 8 00 00 00 00 33 32 08 CC
 141.494396 1  0               Rx   d 8 00 00 00 00 34 00 08 FE
 141.695062 1  0               Rx   d 8 00 00 00 00 34 CC 09 32
 141.895284 1  0               Rx   d 8 00 00 00 00 35 98 09 66
 142.095960 1  0               Rx   d 8 00 00 00 00 36 66 09 98
 142.297025 1  0               Rx   d 8 00 00 00 00 37 32 09 CC
 142.497415 1  0               Rx   d 8 00 00 00 00 38 00 09 FE
 142.697700 1  0               Rx   d 8 00 00 00 00 38 CC 0A 32
 142.898924 1  0               Rx   d 8 00 00 00 00 39 98 0A 66
 143.100212 1  0               Rx   d 8 00 00 00 00 3A 66 0A 98
 143.300484 1  0               Rx   d 8 00 00 00 00 3B 32 0A CC
 143.501588 1  0               Rx   d 8 00 00 00 00 3C 00 0A FE
 143.701901 1  0               Rx   d 8 00 00 00 00 3C CC 0B 32
 143.902828 1  0               Rx   d 8 00 00 00 00 3D 98 0B 66
 144.103297 1  0               Rx   d 8 00 00 00 00 3E 66 0B 98
 144.304179 1  0               Rx   d 8 00 00 00 00 3F 32 0B CC
 144.504702 1  0               Rx   d 8 00 00 00 00 40 00 0B FE
 144.704983 1  0               Rx   d 8 00 00 00 00 40 CC 0C 32
 144.906176 1  0               Rx   d 8 00 00 00 00 41 98 0C 66
 145.107253 1  0               Rx   d 8 00 00 00 00 42 66 0C 98
 145.307433 1  0               Rx   d 8 00 00 00 00 43 32 0C CC
 145.508039 1  0               Rx   d 8 00 00 00 00 44 00 0C FE
 145.708326 1  0               Rx   d 8 00 00 00 00 44 CC 0D 32
 145.909264 1  0               Rx   d 8 00 00 00 00 45 98 0D 66
 146.111036 1  0               Rx   d 8 00 00 00 00 46 66 0D 98
End TriggerBlock
